(1784261591.513113) vecan0 18FECAA5#0545FFFFFFFFFFFF
(1784261591.513721) vecan0 19FECAA5#0545FFFFFFFFFFFF
(1784261591.514349) vecan0 19FFFDA5#0177FFFFFFFFFFFF
(1784261591.514977) vecan0 19FFFCA5#0177FFFFFFFFFFFF
(1784261591.515581) vecan0 19FFD7E1#410000007D0B1EFF
(1784261591.516223) vecan0 19FFD7E1#510000FFFF0B1EFF
(1784261591.516856) vecan0 19FFD5E1#41FF0000FFFFFFFF
(1784261591.517464) vecan0 19FFD5E1#51FF0000FFFFFFFF
(1784261591.610816) vecan0 19FFD7E1#410000007D0B1EFF
(1784261591.611417) vecan0 19FFD7E1#510000FFFF0B1EFF
(1784261591.612044) vecan0 19FFD5E1#41FF0000FFFFFFFF
(1784261591.612661) vecan0 19FFD5E1#51FF0000FFFFFFFF
(1784261591.714615) vecan0 19FFD7E1#410000007D0B1EFF
(1784261591.715214) vecan0 19FFD7E1#510000FFFF0B1EFF
(1784261591.715842) vecan0 19FFD5E1#41FF0000FFFFFFFF
(1784261591.716461) vecan0 19FFD5E1#51FF0000FFFFFFFF
(1784261591.796857) vecan0 01FFFDFA#F9140D01FFFFFFFF
(1784261591.808818) vecan0 19FFD7E1#410000007D0B1EFF
(1784261591.809422) vecan0 19FFD7E1#510000FFFF0B1EFF
(1784261591.810047) vecan0 19FFD5E1#41FF0000FFFFFFFF
(1784261591.810665) vecan0 19FFD5E1#51FF0000FFFFFFFF
(1784261591.811329) vecan0 19FFD4E1#0105FFFFFFFFFFFF
(1784261591.811947) vecan0 19FEA3E1#0101640A01007DFF
(1784261591.908989) vecan0 19FFD7E1#410000007DF41DFF
(1784261591.909599) vecan0 19FFD7E1#510000FFFFF41DFF
(1784261591.910229) vecan0 19FFD5E1#41FF0000FFFFFFFF
(1784261591.910844) vecan0 19FFD5E1#51FF0000FFFFFFFF
(1784261592.011802) vecan0 19FFFDA5#0177FFFFFFFFFFFF
(1784261592.012422) vecan0 19FFFCA5#0177FFFFFFFFFFFF
(1784261592.013052) vecan0 19FFD7E1#410000007DF41DFF
(1784261592.013671) vecan0 19FFD7E1#510000FFFFF41DFF
(1784261592.014298) vecan0 19FFD5E1#41FF0000FFFFFFFF
(1784261592.014944) vecan0 19FFD5E1#51FF0000FFFFFFFF
(1784261592.108192) vecan0 18FECAA3#0545FFFFFFFFFFFF
(1784261592.108808) vecan0 19FECAA3#0545FFFFFFFFFFFF
(1784261592.109474) vecan0 19FFD7E1#410000007DF41DFF
(1784261592.110090) vecan0 19FFD7E1#510000FFFFF41DFF
(1784261592.110710) vecan0 19FFD5E1#41FF0000FFFFFFFF
(1784261592.111317) vecan0 19FFD5E1#51FF0000FFFFFFFF
(1784261592.214358) vecan0 19FFD7E1#410000007DF41DFF
(1784261592.214966) vecan0 19FFD7E1#510000FFFFF41DFF
(1784261592.215592) vecan0 19FFD5E1#41FF0000FFFFFFFF
(1784261592.216205) vecan0 19FFD5E1#51FF0000FFFFFFFF
(1784261592.271862) vecan0 01FFFDFA#F9140C01FFFFFFFF
(1784261592.290469) vecan0 00EEFF10#0000E0FF00803C80
(1784261592.298907) vecan0 01FFFFFA#1A07110600130E08
(1784261592.311234) vecan0 19FFD7E1#410000007D0B1EFF
(1784261592.311840) vecan0 19FFD7E1#510000FFFF0B1EFF
(1784261592.312473) vecan0 19FFD5E1#41FF0000FFFFFFFF
(1784261592.313089) vecan0 19FFD5E1#51FF0000FFFFFFFF
(1784261592.313716) vecan0 19FFD4E1#0105FFFFFFFFFFFF
(1784261592.314330) vecan0 19FEA3E1#0101640A01007DFF
(1784261592.411163) vecan0 19FFD7E1#410000007D0B1EFF
(1784261592.411769) vecan0 19FFD7E1#510000FFFF0B1EFF
(1784261592.412398) vecan0 19FFD5E1#41FF0000FFFFFFFF
(1784261592.413009) vecan0 19FFD5E1#51FF0000FFFFFFFF
(1784261592.513566) vecan0 19FFFDA5#0177FFFFFFFFFFFF
(1784261592.514203) vecan0 19FFFCA5#0177FFFFFFFFFFFF
(1784261592.514805) vecan0 19FFD7E1#410000007D0B1EFF
(1784261592.515403) vecan0 19FFD7E1#510000FFFF0B1EFF
(1784261592.516031) vecan0 19FFD5E1#41FF0000FFFFFFFF
(1784261592.516649) vecan0 19FFD5E1#51FF0000FFFFFFFF
(1784261592.609417) vecan0 19FFD7E1#410000007D0B1EFF
(1784261592.610019) vecan0 19FFD7E1#510000FFFF0B1EFF
(1784261592.610646) vecan0 19FFD5E1#41FF0000FFFFFFFF
(1784261592.611255) vecan0 19FFD5E1#51FF0000FFFFFFFF
(1784261592.713051) vecan0 19FFD7E1#410000007DF41DFF
(1784261592.713672) vecan0 19FFD7E1#510000FFFFF41DFF
(1784261592.714300) vecan0 19FFD5E1#41FF0000FFFFFFFF
(1784261592.714910) vecan0 19FFD5E1#51FF0000FFFFFFFF
(1784261592.787975) vecan0 01FFFDFA#F9140C01FFFFFFFF
(1784261592.812814) vecan0 19FFD7E1#410000007DF41DFF
(1784261592.813448) vecan0 19FFD7E1#510000FFFFF41DFF
(1784261592.814085) vecan0 19FFD5E1#41FF0000FFFFFFFF
(1784261592.814702) vecan0 19FFD5E1#51FF0000FFFFFFFF
(1784261592.815322) vecan0 19FFD4E1#0105FFFFFFFFFFFF
(1784261592.815937) vecan0 19FEA3E1#0101640A01007DFF
(1784261592.909862) vecan0 19FFD7E1#410000007DF41DFF
(1784261592.910499) vecan0 19FFD7E1#510000FFFFF41DFF
(1784261592.911156) vecan0 19FFD5E1#41FF0000FFFFFFFF
(1784261592.911771) vecan0 19FFD5E1#51FF0000FFFFFFFF
(1784261593.012956) vecan0 19FFFDA5#0177FFFFFFFFFFFF
(1784261593.013597) vecan0 19FFFCA5#0177FFFFFFFFFFFF
(1784261593.014221) vecan0 19FFD7E1#410000007DF41DFF
(1784261593.014837) vecan0 19FFD7E1#510000FFFFF41DFF
(1784261593.015468) vecan0 19FFD5E1#41FF0000FFFFFFFF
(1784261593.016088) vecan0 19FFD5E1#51FF0000FFFFFFFF
(1784261593.116065) vecan0 19FFD7E1#410000007D0B1EFF
(1784261593.116713) vecan0 19FFD7E1#510000FFFF0B1EFF
(1784261593.117344) vecan0 19FFD5E1#41FF0000FFFFFFFF
(1784261593.117961) vecan0 19FFD5E1#51FF0000FFFFFFFF
(1784261593.211798) vecan0 19FFD7E1#410000007D0B1EFF
(1784261593.212399) vecan0 19FFD7E1#510000FFFF0B1EFF
(1784261593.213038) vecan0 19FFD5E1#41FF0000FFFFFFFF
(1784261593.213657) vecan0 19FFD5E1#51FF0000FFFFFFFF
(1784261593.264215) vecan0 01FFFDFA#F9140C01FFFFFFFF
(1784261593.280248) vecan0 00EEFF10#0000E0FF00803C80
(1784261593.285961) vecan0 01FFFFFA#1A07110600130F08
(1784261593.289148) vecan0 01FF80FA#00000000002D05FF
(1784261593.291434) vecan0 01FFC7FA#010D01007DFF06FF
(1784261593.293818) vecan0 01FFD4FA#00FFFFFFFFFFFFFF
(1784261593.295811) vecan0 01FFD4FA#00FFFFFFFFFFFFFF
(1784261593.300323) vecan0 01FFB3FA#FDFFFFFFFFFFFFFF
(1784261593.303225) vecan0 01FFB1FA#30FFFFFFFFFFFFFF
(1784261593.305905) vecan0 00FECAFA#0080FFFFFFFF
(1784261593.307629) vecan0 19FFD7E1#410000007D0B1EFF
(1784261593.308410) vecan0 19FFD7E1#510000FFFF0B1EFF
(1784261593.309076) vecan0 19FFD5E1#41FF0000FFFFFFFF
(1784261593.309691) vecan0 19FFD5E1#51FF0000FFFFFFFF
(1784261593.310364) vecan0 19FFD4E1#0105FFFFFFFFFFFF
(1784261593.310977) vecan0 19FEA3E1#0101640A01007DFF
(1784261593.313377) vecan0 01FFDCFA#00E7260100FFFFFF
(1784261593.315457) vecan0 01FFB7FA#00000A00006801FF
(1784261593.317993) vecan0 01FFB7FA#01000A0000BD00FF
(1784261593.320139) vecan0 01FFB7FA#02000A00007B01FF
(1784261593.322464) vecan0 00FECAFA#4548010004FF
(1784261593.324660) vecan0 01FFB7FA#0348643C005400FF
(1784261593.326727) vecan0 01FF9CFA#FA6626FFFFFFFFFF
(1784261593.329038) vecan0 01FF9CFA#F9FEFFFFFFFFFFFF
(1784261593.331049) vecan0 01FF9CFA#F8FEFFFFFFFFFFFF
(1784261593.333408) vecan0 01FF9CFA#FA6626FFFFFFFFFF
(1784261593.335359) vecan0 01FF9CFA#F9FEFFFFFFFFFFFF
(1784261593.337796) vecan0 01FF9CFA#F8FEFFFFFFFFFFFF
(1784261593.339833) vecan0 00FECAFA#0558FFFFFFFF
(1784261593.342094) vecan0 00FECAFA#0558FFFFFFFF
(1784261593.344239) vecan0 00FECAFA#0558FFFFFFFF
(1784261593.346133) vecan0 00FECAFA#0558FFFFFFFF
(1784261593.409488) vecan0 19FFD7E1#410000007D0B1EFF
(1784261593.410089) vecan0 19FFD7E1#510000FFFF0B1EFF
(1784261593.410731) vecan0 19FFD5E1#41FF0000FFFFFFFF
(1784261593.411343) vecan0 19FFD5E1#51FF0000FFFFFFFF
(1784261593.516081) vecan0 19FFFDA5#0177FFFFFFFFFFFF
(1784261593.516714) vecan0 19FFFCA5#0177FFFFFFFFFFFF
(1784261593.517330) vecan0 19FFD7E1#410000007D0B1EFF
(1784261593.517948) vecan0 19FFD7E1#510000FFFF0B1EFF
(1784261593.518587) vecan0 19FFD5E1#41FF0000FFFFFFFF
(1784261593.519205) vecan0 19FFD5E1#51FF0000FFFFFFFF
(1784261593.608417) vecan0 19FFD7E1#410000007DF41DFF
(1784261593.609038) vecan0 19FFD7E1#510000FFFFF41DFF
(1784261593.609667) vecan0 19FFD5E1#41FF0000FFFFFFFF
(1784261593.610300) vecan0 19FFD5E1#51FF0000FFFFFFFF
(1784261593.713006) vecan0 19FFD7E1#410000007DF41DFF
(1784261593.713617) vecan0 19FFD7E1#510000FFFFF41DFF
(1784261593.714250) vecan0 19FFD5E1#41FF0000FFFFFFFF
(1784261593.714866) vecan0 19FFD5E1#51FF0000FFFFFFFF
(1784261593.783588) vecan0 01FFFDFA#F9140C01FFFFFFFF
(1784261593.808322) vecan0 19FFD7E1#410000007DF41DFF
(1784261593.808930) vecan0 19FFD7E1#510000FFFFF41DFF
(1784261593.809565) vecan0 19FFD5E1#41FF0000FFFFFFFF
(1784261593.810189) vecan0 19FFD5E1#51FF0000FFFFFFFF
(1784261593.810816) vecan0 19FFD4E1#0105FFFFFFFFFFFF
(1784261593.811427) vecan0 19FEA3E1#0101640A01007DFF
(1784261593.906707) vecan0 19FFD7E1#410000007DF41DFF
(1784261593.907321) vecan0 19FFD7E1#510000FFFFF41DFF
(1784261593.907955) vecan0 19FFD5E1#41FF0000FFFFFFFF
(1784261593.908569) vecan0 19FFD5E1#51FF0000FFFFFFFF
(1784261594.011469) vecan0 19FFFDA5#0177FFFFFFFFFFFF
(1784261594.012115) vecan0 19FFFCA5#0177FFFFFFFFFFFF
(1784261594.012745) vecan0 19FFD7E1#410000007DF41DFF
(1784261594.013358) vecan0 19FFD7E1#510000FFFFF41DFF
(1784261594.013984) vecan0 19FFD5E1#41FF0000FFFFFFFF
(1784261594.014597) vecan0 19FFD5E1#51FF0000FFFFFFFF
(1784261594.111993) vecan0 19FFD7E1#410000007DF41DFF
(1784261594.112627) vecan0 19FFD7E1#510000FFFFF41DFF
(1784261594.113280) vecan0 19FFD5E1#41FF0000FFFFFFFF
(1784261594.113889) vecan0 19FFD5E1#51FF0000FFFFFFFF
(1784261594.208413) vecan0 19FFD7E1#410000007DF41DFF
(1784261594.209028) vecan0 19FFD7E1#510000FFFFF41DFF
(1784261594.209682) vecan0 19FFD5E1#41FF0000FFFFFFFF
(1784261594.210293) vecan0 19FFD5E1#51FF0000FFFFFFFF
(1784261594.275125) vecan0 00EEFF10#0000E0FF00803C80
(1784261594.281198) vecan0 01FFFFFA#1A07110600131008
(1784261594.296163) vecan0 01FFFDFA#F9140C01FFFFFFFF
(1784261594.304139) vecan0 01FFB7FA#0349643D005400FF
(1784261594.308469) vecan0 19FFD7E1#410000007DF41DFF
(1784261594.309076) vecan0 19FFD7E1#510000FFFFF41DFF
(1784261594.309700) vecan0 19FFD5E1#41FF0000FFFFFFFF
(1784261594.310306) vecan0 19FFD5E1#51FF0000FFFFFFFF
(1784261594.310920) vecan0 19FFD4E1#0105FFFFFFFFFFFF
(1784261594.311536) vecan0 19FEA3E1#0101640A01007DFF
(1784261594.411474) vecan0 19FFD7E1#410000007DF41DFF
(1784261594.412084) vecan0 19FFD7E1#510000FFFFF41DFF
(1784261594.412719) vecan0 19FFD5E1#41FF0000FFFFFFFF
(1784261594.413341) vecan0 19FFD5E1#51FF0000FFFFFFFF
(1784261594.513328) vecan0 19FFFDA5#0177FFFFFFFFFFFF
(1784261594.513972) vecan0 19FFFCA5#0177FFFFFFFFFFFF
(1784261594.514585) vecan0 19FFD7E1#410000007D0B1EFF
(1784261594.515193) vecan0 19FFD7E1#510000FFFF0B1EFF
(1784261594.515818) vecan0 19FFD5E1#41FF0000FFFFFFFF
(1784261594.516436) vecan0 19FFD5E1#51FF0000FFFFFFFF
(1784261594.613564) vecan0 18FECAE2#0544FFFFFFFFFFFF
(1784261594.614182) vecan0 19FECAE2#0544FFFFFFFFFFFF
(1784261594.614794) vecan0 19FFD7E1#410000007D0B1EFF
(1784261594.615397) vecan0 19FFD7E1#510000FFFF0B1EFF
(1784261594.616019) vecan0 19FFD5E1#41FF0000FFFFFFFF
(1784261594.616637) vecan0 19FFD5E1#51FF0000FFFFFFFF
(1784261594.710697) vecan0 19FFD7E1#410000007D0B1EFF
(1784261594.711300) vecan0 19FFD7E1#510000FFFF0B1EFF
(1784261594.711933) vecan0 19FFD5E1#41FF0000FFFFFFFF
(1784261594.712543) vecan0 19FFD5E1#51FF0000FFFFFFFF
(1784261594.776545) vecan0 01FFFDFA#F9140C01FFFFFFFF
(1784261594.811803) vecan0 18FECAE1#1442000012FFFFFF
(1784261594.812408) vecan0 19FECAE1#1442000012FFFFFF
(1784261594.813019) vecan0 19FFD7E1#410000007DF41DFF
(1784261594.813621) vecan0 19FFD7E1#510000FFFFF41DFF
(1784261594.814234) vecan0 19FFD5E1#41FF0000FFFFFFFF
(1784261594.814839) vecan0 19FFD5E1#51FF0000FFFFFFFF
(1784261594.815463) vecan0 19FFD4E1#0105FFFFFFFFFFFF
(1784261594.816071) vecan0 19FFCAE1#01F608007D271EFF
(1784261594.816664) vecan0 19FFCAE1#11BD08007D271EFF
(1784261594.817280) vecan0 19FFC9E1#01FFFFFFFFFFFF14
(1784261594.817895) vecan0 19FFC8E1#01FF0000FFFFFFFF
(1784261594.818509) vecan0 19FFC8E1#11FF0000FFFFFFFF
(1784261594.819117) vecan0 19FFC7E1#010E016086C801FF
(1784261594.819732) vecan0 19FEA3E1#0101640A01007DFF
(1784261594.820339) vecan0 18FECAA4#0545FFFFFFFFFFFF
(1784261594.821148) vecan0 19FECAA4#0545FFFFFFFFFFFF
(1784261594.862822) vecan0 18FECAA0#0545FFFFFFFFFFFF
(1784261594.863430) vecan0 19FECAA0#0545FFFFFFFFFFFF
(1784261594.913758) vecan0 19FFD7E1#410000007DF41DFF
(1784261594.914365) vecan0 19FFD7E1#510000FFFFF41DFF
(1784261594.914985) vecan0 19FFD5E1#41FF0000FFFFFFFF
(1784261594.915600) vecan0 19FFD5E1#51FF0000FFFFFFFF
(1784261595.008771) vecan0 19FFFDA5#0177FFFFFFFFFFFF
(1784261595.009389) vecan0 19FFFCA5#0177FFFFFFFFFFFF
(1784261595.010004) vecan0 19FFD7E1#410000007DF41DFF
(1784261595.010615) vecan0 19FFD7E1#510000FFFFF41DFF
(1784261595.011243) vecan0 19FFD5E1#41FF0000FFFFFFFF
(1784261595.011855) vecan0 19FFD5E1#51FF0000FFFFFFFF
(1784261595.113124) vecan0 19FFD7E1#410000007DF41DFF
(1784261595.113744) vecan0 19FFD7E1#510000FFFFF41DFF
(1784261595.114381) vecan0 19FFD5E1#41FF0000FFFFFFFF
(1784261595.114991) vecan0 19FFD5E1#51FF0000FFFFFFFF
(1784261595.209960) vecan0 19FFD7E1#410000007DF41DFF
(1784261595.210576) vecan0 19FFD7E1#510000FFFFF41DFF
(1784261595.211219) vecan0 19FFD5E1#41FF0000FFFFFFFF
(1784261595.211837) vecan0 19FFD5E1#51FF0000FFFFFFFF
(1784261595.257952) vecan0 18FECAA2#0545FFFFFFFFFFFF
(1784261595.258578) vecan0 19FECAA2#0545FFFFFFFFFFFF
(1784261595.268424) vecan0 00EEFF10#0000E0FF00803C80
(1784261595.276496) vecan0 01FFFFFA#1A07110600131108
(1784261595.291110) vecan0 01FFFDFA#F9140C01FFFFFFFF
(1784261595.299853) vecan0 01FFB7FA#0348643C005400FF
(1784261595.302368) vecan0 01FF9CFA#FA6426FFFFFFFFFF
(1784261595.304300) vecan0 01FF9CFA#F9FEFFFFFFFFFFFF
(1784261595.306125) vecan0 01FF9CFA#F8FEFFFFFFFFFFFF
(1784261595.306873) vecan0 19FFD7E1#410000007DF41DFF
(1784261595.307554) vecan0 19FFD7E1#510000FFFFF41DFF
(1784261595.308206) vecan0 19FFD5E1#41FF0000FFFFFFFF
(1784261595.308815) vecan0 19FFD5E1#51FF0000FFFFFFFF
(1784261595.309442) vecan0 19FFD4E1#0105FFFFFFFFFFFF
(1784261595.310066) vecan0 19FEA3E1#0101640A01007DFF
(1784261595.407272) vecan0 19FFD7E1#410000007DF41DFF
(1784261595.407890) vecan0 19FFD7E1#510000FFFFF41DFF
(1784261595.408525) vecan0 19FFD5E1#41FF0000FFFFFFFF
(1784261595.409145) vecan0 19FFD5E1#51FF0000FFFFFFFF
(1784261595.511144) vecan0 19FFFDA5#0177FFFFFFFFFFFF
(1784261595.511773) vecan0 19FFFCA5#0177FFFFFFFFFFFF
(1784261595.512399) vecan0 19FFD7E1#410000007DF41DFF
(1784261595.513024) vecan0 19FFD7E1#510000FFFFF41DFF
(1784261595.513656) vecan0 19FFD5E1#41FF0000FFFFFFFF
(1784261595.514277) vecan0 19FFD5E1#51FF0000FFFFFFFF
(1784261595.611908) vecan0 19FFD7E1#410000007DF41DFF
(1784261595.612523) vecan0 19FFD7E1#510000FFFFF41DFF
(1784261595.613153) vecan0 19FFD5E1#41FF0000FFFFFFFF
(1784261595.613792) vecan0 19FFD5E1#51FF0000FFFFFFFF
(1784261595.708889) vecan0 19FFD7E1#410000007D0B1EFF
(1784261595.709506) vecan0 19FFD7E1#510000FFFF0B1EFF
(1784261595.710136) vecan0 19FFD5E1#41FF0000FFFFFFFF
(1784261595.710756) vecan0 19FFD5E1#51FF0000FFFFFFFF
(1784261595.772064) vecan0 01FFFDFA#F9140C01FFFFFFFF
(1784261595.813902) vecan0 19FFD7E1#410000007D0B1EFF
(1784261595.814497) vecan0 19FFD7E1#510000FFFF0B1EFF
(1784261595.815148) vecan0 19FFD5E1#41FF0000FFFFFFFF
(1784261595.816100) vecan0 19FFD5E1#51FF0000FFFFFFFF
(1784261595.816730) vecan0 19FFD4E1#0105FFFFFFFFFFFF
(1784261595.817357) vecan0 19FEA3E1#0101640A01007DFF
(1784261595.911810) vecan0 19FFD7E1#410000007D0B1EFF
(1784261595.912415) vecan0 19FFD7E1#510000FFFF0B1EFF
(1784261595.913043) vecan0 19FFD5E1#41FF0000FFFFFFFF
(1784261595.913656) vecan0 19FFD5E1#51FF0000FFFFFFFF
(1784261596.006738) vecan0 19FFFDA5#0177FFFFFFFFFFFF
(1784261596.007378) vecan0 19FFFCA5#0177FFFFFFFFFFFF
(1784261596.007986) vecan0 19FFD7E1#410000007D0B1EFF
(1784261596.008596) vecan0 19FFD7E1#510000FFFF0B1EFF
(1784261596.009228) vecan0 19FFD5E1#41FF0000FFFFFFFF
(1784261596.009876) vecan0 19FFD5E1#51FF0000FFFFFFFF
(1784261596.112412) vecan0 19FFD7E1#410000007DF41DFF
(1784261596.113032) vecan0 19FFD7E1#510000FFFFF41DFF
(1784261596.113665) vecan0 19FFD5E1#41FF0000FFFFFFFF
(1784261596.114284) vecan0 19FFD5E1#51FF0000FFFFFFFF
(1784261596.211799) vecan0 19FFD7E1#410000007DF41DFF
(1784261596.212406) vecan0 19FFD7E1#510000FFFFF41DFF
(1784261596.213037) vecan0 19FFD5E1#41FF0000FFFFFFFF
(1784261596.213661) vecan0 19FFD5E1#51FF0000FFFFFFFF
(1784261596.280770) vecan0 01FFFDFA#F9140C01FFFFFFFF
(1784261596.283454) vecan0 01FFB7FA#0349643D005400FF
(1784261596.301597) vecan0 00EEFF10#0000E0FF00803C80
(1784261596.310008) vecan0 01FFFFFA#1A07110600131208
(1784261596.310695) vecan0 19FFD7E1#410000007DF41DFF
(1784261596.311308) vecan0 19FFD7E1#510000FFFFF41DFF
(1784261596.311940) vecan0 19FFD5E1#41FF0000FFFFFFFF
(1784261596.312554) vecan0 19FFD5E1#51FF0000FFFFFFFF
(1784261596.313198) vecan0 19FFD4E1#0105FFFFFFFFFFFF
(1784261596.313817) vecan0 19FEA3E1#0101640A01007DFF
(1784261596.407337) vecan0 19FFD7E1#410000007DF41DFF
(1784261596.407969) vecan0 19FFD7E1#510000FFFFF41DFF
(1784261596.408603) vecan0 19FFD5E1#41FF0000FFFFFFFF
(1784261596.409230) vecan0 19FFD5E1#51FF0000FFFFFFFF
(1784261596.509633) vecan0 18FECAA5#0545FFFFFFFFFFFF
(1784261596.510239) vecan0 19FECAA5#0545FFFFFFFFFFFF
(1784261596.510865) vecan0 19FFFDA5#0177FFFFFFFFFFFF
(1784261596.511483) vecan0 19FFFCA5#0177FFFFFFFFFFFF
(1784261596.512098) vecan0 19FFD7E1#410000007DF41DFF
(1784261596.512709) vecan0 19FFD7E1#510000FFFFF41DFF
(1784261596.513340) vecan0 19FFD5E1#41FF0000FFFFFFFF
(1784261596.513958) vecan0 19FFD5E1#51FF0000FFFFFFFF
(1784261596.612717) vecan0 19FFD7E1#410000007DF41DFF
(1784261596.613339) vecan0 19FFD7E1#510000FFFFF41DFF
(1784261596.613973) vecan0 19FFD5E1#41FF0000FFFFFFFF
(1784261596.614593) vecan0 19FFD5E1#51FF0000FFFFFFFF
(1784261596.711861) vecan0 19FFD7E1#410000007DF41DFF
(1784261596.712483) vecan0 19FFD7E1#510000FFFFF41DFF
(1784261596.713119) vecan0 19FFD5E1#41FF0000FFFFFFFF
(1784261596.713738) vecan0 19FFD5E1#51FF0000FFFFFFFF
(1784261596.765472) vecan0 01FFFDFA#F9140C01FFFFFFFF
(1784261596.808477) vecan0 19FFD7E1#410000007DF41DFF
(1784261596.809094) vecan0 19FFD7E1#510000FFFFF41DFF
(1784261596.809732) vecan0 19FFD5E1#41FF0000FFFFFFFF
(1784261596.810347) vecan0 19FFD5E1#51FF0000FFFFFFFF
(1784261596.811003) vecan0 19FFD4E1#0105FFFFFFFFFFFF
(1784261596.811623) vecan0 19FEA3E1#0101640A01007DFF
(1784261596.908751) vecan0 19FFD7E1#410000007DF41DFF
(1784261596.909358) vecan0 19FFD7E1#510000FFFFF41DFF
(1784261596.909987) vecan0 19FFD5E1#41FF0000FFFFFFFF
(1784261596.910605) vecan0 19FFD5E1#51FF0000FFFFFFFF
(1784261597.010955) vecan0 19FFFDA5#0177FFFFFFFFFFFF
(1784261597.011580) vecan0 19FFFCA5#0177FFFFFFFFFFFF
(1784261597.012195) vecan0 19FFD7E1#410000007D0B1EFF
(1784261597.012807) vecan0 19FFD7E1#510000FFFF0B1EFF
(1784261597.013437) vecan0 19FFD5E1#41FF0000FFFFFFFF
(1784261597.014046) vecan0 19FFD5E1#51FF0000FFFFFFFF
(1784261597.112942) vecan0 18FECAA3#0545FFFFFFFFFFFF
(1784261597.113564) vecan0 19FECAA3#0545FFFFFFFFFFFF
(1784261597.114181) vecan0 19FFD7E1#410000007D0B1EFF
(1784261597.114797) vecan0 19FFD7E1#510000FFFF0B1EFF
(1784261597.115452) vecan0 19FFD5E1#41FF0000FFFFFFFF
(1784261597.116069) vecan0 19FFD5E1#51FF0000FFFFFFFF
(1784261597.210989) vecan0 19FFD7E1#410000007D0B1EFF
(1784261597.211591) vecan0 19FFD7E1#510000FFFF0B1EFF
(1784261597.212219) vecan0 19FFD5E1#41FF0000FFFFFFFF
(1784261597.212834) vecan0 19FFD5E1#51FF0000FFFFFFFF
(1784261597.276848) vecan0 01FFFDFA#F9140C01FFFFFFFF
(1784261597.285446) vecan0 01FF9CFA#FA6626FFFFFFFFFF
(1784261597.287554) vecan0 01FF9CFA#F9FEFFFFFFFFFFFF
(1784261597.289818) vecan0 01FF9CFA#F8FEFFFFFFFFFFFF
(1784261597.296339) vecan0 00EEFF10#0000E0FF00803C80
(1784261597.302547) vecan0 01FFFFFA#1A07110600131308
(1784261597.313305) vecan0 19FFD7E1#410000007D0B1EFF
(1784261597.313905) vecan0 19FFD7E1#510000FFFF0B1EFF
(1784261597.314573) vecan0 19FFD5E1#41FF0000FFFFFFFF
(1784261597.315181) vecan0 19FFD5E1#51FF0000FFFFFFFF
(1784261597.315810) vecan0 19FFD4E1#0105FFFFFFFFFFFF
(1784261597.316422) vecan0 19FEA3E1#0101640A01007DFF
(1784261597.409938) vecan0 19FFD7E1#410000007D0B1EFF
(1784261597.410544) vecan0 19FFD7E1#510000FFFF0B1EFF
(1784261597.411172) vecan0 19FFD5E1#41FF0000FFFFFFFF
(1784261597.411822) vecan0 19FFD5E1#51FF0000FFFFFFFF
(1784261597.514290) vecan0 19FFFDA5#0177FFFFFFFFFFFF
(1784261597.514914) vecan0 19FFFCA5#0177FFFFFFFFFFFF
(1784261597.515540) vecan0 19FFD7E1#410000007DF41DFF
(1784261597.516161) vecan0 19FFD7E1#510000FFFFF41DFF
(1784261597.516794) vecan0 19FFD5E1#41FF0000FFFFFFFF
(1784261597.517406) vecan0 19FFD5E1#51FF0000FFFFFFFF
(1784261597.616493) vecan0 19FFD7E1#410000007DF41DFF
(1784261597.617118) vecan0 19FFD7E1#510000FFFFF41DFF
(1784261597.617747) vecan0 19FFD5E1#41FF0000FFFFFFFF
(1784261597.618362) vecan0 19FFD5E1#51FF0000FFFFFFFF
(1784261597.708855) vecan0 19FFD7E1#410000007DF41DFF
(1784261597.709522) vecan0 19FFD7E1#510000FFFFF41DFF
(1784261597.710148) vecan0 19FFD5E1#41FF0000FFFFFFFF
(1784261597.710754) vecan0 19FFD5E1#51FF0000FFFFFFFF
(1784261597.794052) vecan0 01FFFDFA#F9140C01FFFFFFFF
(1784261597.812289) vecan0 19FFD7E1#410000007DF41DFF
(1784261597.812900) vecan0 19FFD7E1#510000FFFFF41DFF
(1784261597.813523) vecan0 19FFD5E1#41FF0000FFFFFFFF
(1784261597.814144) vecan0 19FFD5E1#51FF0000FFFFFFFF
(1784261597.814782) vecan0 19FFD4E1#0105FFFFFFFFFFFF
(1784261597.815401) vecan0 19FEA3E1#0101640A01007DFF
(1784261597.912816) vecan0 19FFD7E1#410000007DF41DFF
(1784261597.913436) vecan0 19FFD7E1#510000FFFFF41DFF
(1784261597.914069) vecan0 19FFD5E1#41FF0000FFFFFFFF
(1784261597.914685) vecan0 19FFD5E1#51FF0000FFFFFFFF
(1784261598.008926) vecan0 19FFFDA5#0177FFFFFFFFFFFF
(1784261598.009545) vecan0 19FFFCA5#0177FFFFFFFFFFFF
(1784261598.010179) vecan0 19FFD7E1#410000007DF41DFF
(1784261598.010811) vecan0 19FFD7E1#510000FFFFF41DFF
(1784261598.011453) vecan0 19FFD5E1#41FF0000FFFFFFFF
(1784261598.012066) vecan0 19FFD5E1#51FF0000FFFFFFFF
(1784261598.109599) vecan0 19FFD7E1#410000007DF41DFF
(1784261598.110213) vecan0 19FFD7E1#510000FFFFF41DFF
(1784261598.110844) vecan0 19FFD5E1#41FF0000FFFFFFFF
(1784261598.111460) vecan0 19FFD5E1#51FF0000FFFFFFFF
(1784261598.211726) vecan0 19FFD7E1#410000007DF41DFF
(1784261598.212339) vecan0 19FFD7E1#510000FFFFF41DFF
(1784261598.212965) vecan0 19FFD5E1#41FF0000FFFFFFFF
(1784261598.213579) vecan0 19FFD5E1#51FF0000FFFFFFFF
(1784261598.268481) vecan0 01FFFDFA#F9140C01FFFFFFFF
(1784261598.276670) vecan0 01FFB7FA#0348643C005400FF
(1784261598.287871) vecan0 00EEFF10#0000E0FF00803C80
(1784261598.295950) vecan0 01FFFFFA#1A07110600131408
(1784261598.299052) vecan0 01FF80FA#00000000002D05FF
(1784261598.301062) vecan0 01FFC7FA#010D01007DFF06FF
(1784261598.303358) vecan0 01FFD4FA#00FFFFFFFFFFFFFF
(1784261598.305765) vecan0 01FFD4FA#00FFFFFFFFFFFFFF
(1784261598.308347) vecan0 19FFD7E1#410000007DF41DFF
(1784261598.308960) vecan0 19FFD7E1#510000FFFFF41DFF
(1784261598.309588) vecan0 19FFD5E1#41FF0000FFFFFFFF
(1784261598.310200) vecan0 19FFD5E1#51FF0000FFFFFFFF
(1784261598.310791) vecan0 01FFB3FA#FDFFFFFFFFFFFFFF
(1784261598.311367) vecan0 19FFD4E1#0105FFFFFFFFFFFF
(1784261598.311990) vecan0 19FEA3E1#0101640A01007DFF
(1784261598.314001) vecan0 01FFB1FA#30FFFFFFFFFFFFFF
(1784261598.316872) vecan0 00FECAFA#0080FFFFFFFF
(1784261598.319779) vecan0 01FFC7FA#010C01007DFF06FF
(1784261598.321415) vecan0 01FFDCFA#00E7260100FFFFFF
(1784261598.323882) vecan0 01FFB7FA#00000A00006801FF
(1784261598.325959) vecan0 01FFB7FA#01000A0000BD00FF
(1784261598.327992) vecan0 01FFB7FA#02000A00007B01FF
(1784261598.330184) vecan0 00FECAFA#4548010004FF
(1784261598.332306) vecan0 01FFB7FA#0348643C005400FF
(1784261598.334721) vecan0 01FF9CFA#FA6626FFFFFFFFFF
(1784261598.336715) vecan0 01FF9CFA#F9FEFFFFFFFFFFFF
(1784261598.339184) vecan0 01FF9CFA#F8FEFFFFFFFFFFFF
(1784261598.341110) vecan0 00FECAFA#0558FFFFFFFF
(1784261598.343360) vecan0 00FECAFA#0558FFFFFFFF
(1784261598.345522) vecan0 00FECAFA#0558FFFFFFFF
(1784261598.347690) vecan0 00FECAFA#0558FFFFFFFF
(1784261598.412100) vecan0 19FFD7E1#410000007DF41DFF
(1784261598.412725) vecan0 19FFD7E1#510000FFFFF41DFF
(1784261598.413362) vecan0 19FFD5E1#41FF0000FFFFFFFF
(1784261598.413979) vecan0 19FFD5E1#51FF0000FFFFFFFF
(1784261598.508267) vecan0 19FFFDA5#0177FFFFFFFFFFFF
(1784261598.508888) vecan0 19FFFCA5#0177FFFFFFFFFFFF
(1784261598.509509) vecan0 19FFD7E1#410000007DF41DFF
(1784261598.510157) vecan0 19FFD7E1#510000FFFFF41DFF
(1784261598.510794) vecan0 19FFD5E1#41FF0000FFFFFFFF
(1784261598.511415) vecan0 19FFD5E1#51FF0000FFFFFFFF
(1784261598.613842) vecan0 19FFD7E1#410000007DF41DFF
(1784261598.614639) vecan0 19FFD7E1#510000FFFFF41DFF
(1784261598.615270) vecan0 19FFD5E1#41FF0000FFFFFFFF
(1784261598.615888) vecan0 19FFD5E1#51FF0000FFFFFFFF
(1784261598.708688) vecan0 19FFD7E1#410000007DF41DFF
(1784261598.709309) vecan0 19FFD7E1#510000FFFFF41DFF
(1784261598.709948) vecan0 19FFD5E1#41FF0000FFFFFFFF
(1784261598.710565) vecan0 19FFD5E1#51FF0000FFFFFFFF
(1784261598.791390) vecan0 01FFFDFA#F9140C01FFFFFFFF
(1784261598.812026) vecan0 19FFD7E1#410000007DF41DFF
(1784261598.812642) vecan0 19FFD7E1#510000FFFFF41DFF
(1784261598.813278) vecan0 19FFD5E1#41FF0000FFFFFFFF
(1784261598.813893) vecan0 19FFD5E1#51FF0000FFFFFFFF
(1784261598.814521) vecan0 19FFD4E1#0105FFFFFFFFFFFF
(1784261598.815136) vecan0 19FEA3E1#0101640A01007DFF
(1784261598.908787) vecan0 19FFD7E1#410000007DF41DFF
(1784261598.909395) vecan0 19FFD7E1#510000FFFFF41DFF
(1784261598.910026) vecan0 19FFD5E1#41FF0000FFFFFFFF
(1784261598.910638) vecan0 19FFD5E1#51FF0000FFFFFFFF
(1784261599.008433) vecan0 19FFFDA5#0177FFFFFFFFFFFF
(1784261599.009053) vecan0 19FFFCA5#0177FFFFFFFFFFFF
(1784261599.009676) vecan0 19FFD7E1#410000007DF41DFF
(1784261599.010296) vecan0 19FFD7E1#510000FFFFF41DFF
(1784261599.010932) vecan0 19FFD5E1#41FF0000FFFFFFFF
(1784261599.011551) vecan0 19FFD5E1#51FF0000FFFFFFFF
(1784261599.112463) vecan0 19FFD7E1#410000007DF41DFF
(1784261599.113073) vecan0 19FFD7E1#510000FFFFF41DFF
(1784261599.113706) vecan0 19FFD5E1#41FF0000FFFFFFFF
(1784261599.114320) vecan0 19FFD5E1#51FF0000FFFFFFFF
(1784261599.207591) vecan0 19FFD7E1#410000007DF41DFF
(1784261599.208207) vecan0 19FFD7E1#510000FFFFF41DFF
(1784261599.208841) vecan0 19FFD5E1#41FF0000FFFFFFFF
(1784261599.209455) vecan0 19FFD5E1#51FF0000FFFFFFFF
(1784261599.265801) vecan0 01FFFDFA#F9140C01FFFFFFFF
(1784261599.285013) vecan0 00EEFF10#0000E0FF00803C80
(1784261599.293190) vecan0 01FFFFFA#1A07110600131508
(1784261599.310347) vecan0 01FFB7FA#0349643D005400FF
(1784261599.314181) vecan0 19FFD7E1#410000007DF41DFF
(1784261599.314791) vecan0 19FFD7E1#510000FFFFF41DFF
(1784261599.315422) vecan0 19FFD5E1#41FF0000FFFFFFFF
(1784261599.316036) vecan0 19FFD5E1#51FF0000FFFFFFFF
(1784261599.316666) vecan0 19FFD4E1#0105FFFFFFFFFFFF
(1784261599.317283) vecan0 19FEA3E1#0101640A01007DFF
(1784261599.411548) vecan0 19FFD7E1#410000007DF41DFF
(1784261599.412169) vecan0 19FFD7E1#510000FFFFF41DFF
(1784261599.412808) vecan0 19FFD5E1#41FF0000FFFFFFFF
(1784261599.413418) vecan0 19FFD5E1#51FF0000FFFFFFFF
(1784261599.509529) vecan0 19FFFDA5#0177FFFFFFFFFFFF
(1784261599.510159) vecan0 19FFFCA5#0177FFFFFFFFFFFF
(1784261599.510796) vecan0 19FFD7E1#410000007DF41DFF
(1784261599.511422) vecan0 19FFD7E1#510000FFFFF41DFF
(1784261599.512052) vecan0 19FFD5E1#41FF0000FFFFFFFF
(1784261599.512668) vecan0 19FFD5E1#51FF0000FFFFFFFF
(1784261599.615368) vecan0 18FECAE2#0544FFFFFFFFFFFF
(1784261599.615988) vecan0 19FECAE2#0544FFFFFFFFFFFF
(1784261599.616605) vecan0 19FFD7E1#410000007D0B1EFF
(1784261599.617215) vecan0 19FFD7E1#510000FFFF0B1EFF
(1784261599.617847) vecan0 19FFD5E1#41FF0000FFFFFFFF
(1784261599.618462) vecan0 19FFD5E1#51FF0000FFFFFFFF
(1784261599.706727) vecan0 19FFD7E1#410000007D0B1EFF
(1784261599.707332) vecan0 19FFD7E1#510000FFFF0B1EFF
(1784261599.707964) vecan0 19FFD5E1#41FF0000FFFFFFFF
(1784261599.708580) vecan0 19FFD5E1#51FF0000FFFFFFFF
(1784261599.782622) vecan0 01FFFDFA#F9140C01FFFFFFFF
(1784261599.813658) vecan0 18FECAE1#1442000012FFFFFF
(1784261599.814262) vecan0 19FECAE1#1442000012FFFFFF
(1784261599.814868) vecan0 19FFD7E1#410000007D0B1EFF
(1784261599.815467) vecan0 19FFD7E1#510000FFFF0B1EFF
(1784261599.816094) vecan0 19FFD5E1#41FF0000FFFFFFFF
(1784261599.816711) vecan0 19FFD5E1#51FF0000FFFFFFFF
(1784261599.817346) vecan0 19FFD4E1#0105FFFFFFFFFFFF
(1784261599.817956) vecan0 19FFCAE1#01EB08007D271EFF
(1784261599.818546) vecan0 19FFCAE1#11BD08007D271EFF
(1784261599.819155) vecan0 19FFC9E1#01FFFFFFFFFFFF14
(1784261599.819769) vecan0 19FFC8E1#01FF0000FFFFFFFF
(1784261599.820379) vecan0 19FFC8E1#11FF0000FFFFFFFF
(1784261599.820985) vecan0 19FFC7E1#010E016086C801FF
(1784261599.821603) vecan0 19FEA3E1#0101640A01007DFF
(1784261599.822219) vecan0 18FECAA4#0545FFFFFFFFFFFF
(1784261599.822847) vecan0 19FECAA4#0545FFFFFFFFFFFF
(1784261599.859602) vecan0 18FECAA0#0545FFFFFFFFFFFF
(1784261599.860201) vecan0 19FECAA0#0545FFFFFFFFFFFF
(1784261599.910153) vecan0 19FFD7E1#410000007D0B1EFF
(1784261599.910785) vecan0 19FFD7E1#510000FFFF0B1EFF
(1784261599.911408) vecan0 19FFD5E1#41FF0000FFFFFFFF
(1784261599.912025) vecan0 19FFD5E1#51FF0000FFFFFFFF
(1784261600.010184) vecan0 19FFFDA5#0177FFFFFFFFFFFF
(1784261600.010806) vecan0 19FFFCA5#0177FFFFFFFFFFFF
(1784261600.011423) vecan0 19FFD7E1#410000007D0B1EFF
(1784261600.012039) vecan0 19FFD7E1#510000FFFF0B1EFF
(1784261600.012671) vecan0 19FFD5E1#41FF0000FFFFFFFF
(1784261600.013291) vecan0 19FFD5E1#51FF0000FFFFFFFF
(1784261600.110473) vecan0 19FFD7E1#410000007D0B1EFF
(1784261600.111083) vecan0 19FFD7E1#510000FFFF0B1EFF
(1784261600.111717) vecan0 19FFD5E1#41FF0000FFFFFFFF
(1784261600.112335) vecan0 19FFD5E1#51FF0000FFFFFFFF
(1784261600.210836) vecan0 19FFD7E1#410000007D0B1EFF
(1784261600.211441) vecan0 19FFD7E1#510000FFFF0B1EFF
(1784261600.212109) vecan0 19FFD5E1#41FF0000FFFFFFFF
(1784261600.212730) vecan0 19FFD5E1#51FF0000FFFFFFFF
(1784261600.256227) vecan0 18FECAA2#0545FFFFFFFFFFFF
(1784261600.256823) vecan0 19FECAA2#0545FFFFFFFFFFFF
(1784261600.276947) vecan0 00EEFF10#0000E0FF00803C80
(1784261600.282372) vecan0 01FFFFFA#1A07110600131608
(1784261600.298802) vecan0 01FFFDFA#F9140D01FFFFFFFF
(1784261600.301145) vecan0 01FFC7FA#010D01007DFF06FF
(1784261600.310706) vecan0 19FFD7E1#410000007D0B1EFF
(1784261600.311307) vecan0 19FFD7E1#510000FFFF0B1EFF
(1784261600.311935) vecan0 19FFD5E1#41FF0000FFFFFFFF
(1784261600.312541) vecan0 19FFD5E1#51FF0000FFFFFFFF
(1784261600.313159) vecan0 19FFD4E1#0105FFFFFFFFFFFF
(1784261600.313774) vecan0 19FEA3E1#0101640A01007DFF
(1784261600.406489) vecan0 19FFD7E1#410000007D0B1EFF
(1784261600.407096) vecan0 19FFD7E1#510000FFFF0B1EFF
(1784261600.407724) vecan0 19FFD5E1#41FF0000FFFFFFFF
(1784261600.408332) vecan0 19FFD5E1#51FF0000FFFFFFFF
(1784261600.510359) vecan0 18EA9BE2#00EE00
(1784261600.512757) vecan0 19FFFDA5#0177FFFFFFFFFFFF
(1784261600.513379) vecan0 19FFFCA5#0177FFFFFFFFFFFF
(1784261600.513990) vecan0 19FFD7E1#410000007D0B1EFF
(1784261600.514594) vecan0 19FFD7E1#510000FFFF0B1EFF
(1784261600.515218) vecan0 19FFD5E1#41FF0000FFFFFFFF
(1784261600.515836) vecan0 19FFD5E1#51FF0000FFFFFFFF
(1784261600.607955) vecan0 19FFD7E1#410000007D0B1EFF
(1784261600.608563) vecan0 19FFD7E1#510000FFFF0B1EFF
(1784261600.609188) vecan0 19FFD5E1#41FF0000FFFFFFFF
(1784261600.609790) vecan0 00EEFF9B#2020000E00000080
(1784261600.610356) vecan0 19FFD5E1#51FF0000FFFFFFFF
(1784261600.622963) vecan0 00EFFA9B#F4FFFFFFFFFFFFFF
(1784261600.627106) vecan0 00EF9BFA#F050105154000001
(1784261600.712683) vecan0 19FFD7E1#410000007D0B1EFF
(1784261600.713292) vecan0 19FFD7E1#510000FFFF0B1EFF
(1784261600.713926) vecan0 19FFD5E1#41FF0000FFFFFFFF
(1784261600.714622) vecan0 19FFD5E1#51FF0000FFFFFFFF
(1784261600.777911) vecan0 01FFFDFA#F9140C01FFFFFFFF
(1784261600.807490) vecan0 19FFD7E1#410000007D0B1EFF
(1784261600.808090) vecan0 19FFD7E1#510000FFFF0B1EFF
(1784261600.808718) vecan0 19FFD5E1#41FF0000FFFFFFFF
(1784261600.809331) vecan0 19FFD5E1#51FF0000FFFFFFFF
(1784261600.809952) vecan0 19FFD4E1#0105FFFFFFFFFFFF
(1784261600.810573) vecan0 19FEA3E1#0101640A01007DFF
(1784261600.907389) vecan0 19FFD7E1#410000007D0B1EFF
(1784261600.907991) vecan0 19FFD7E1#510000FFFF0B1EFF
(1784261600.908624) vecan0 19FFD5E1#41FF0000FFFFFFFF
(1784261600.909242) vecan0 19FFD5E1#51FF0000FFFFFFFF
(1784261601.010434) vecan0 19FFFDA5#0177FFFFFFFFFFFF
(1784261601.011052) vecan0 19FFFCA5#0177FFFFFFFFFFFF
(1784261601.011669) vecan0 19FFD7E1#410000007D0B1EFF
(1784261601.012283) vecan0 19FFD7E1#510000FFFF0B1EFF
(1784261601.012916) vecan0 19FFD5E1#41FF0000FFFFFFFF
(1784261601.013536) vecan0 19FFD5E1#51FF0000FFFFFFFF
(1784261601.116673) vecan0 19FFD7E1#410000007DF41DFF
(1784261601.117287) vecan0 19FFD7E1#510000FFFFF41DFF
(1784261601.117915) vecan0 19FFD5E1#41FF0000FFFFFFFF
(1784261601.118545) vecan0 19FFD5E1#51FF0000FFFFFFFF
(1784261601.210203) vecan0 19FFD7E1#410000007DF41DFF
(1784261601.210821) vecan0 19FFD7E1#510000FFFFF41DFF
(1784261601.211457) vecan0 19FFD5E1#41FF0000FFFFFFFF
(1784261601.212077) vecan0 19FFD5E1#51FF0000FFFFFFFF
(1784261601.275067) vecan0 01FFFFFA#1A07110600131708
(1784261601.291130) vecan0 01FFFDFA#F9140C01FFFFFFFF
(1784261601.293526) vecan0 01FFC7FA#010C01007DFF06FF
(1784261601.307570) vecan0 19FFD7E1#410000007DF41DFF
(1784261601.308172) vecan0 19FFD7E1#510000FFFFF41DFF
(1784261601.308794) vecan0 19FFD5E1#41FF0000FFFFFFFF
(1784261601.309404) vecan0 19FFD5E1#51FF0000FFFFFFFF
(1784261601.310036) vecan0 19FFD4E1#0105FFFFFFFFFFFF
(1784261601.310654) vecan0 19FEA3E1#0101640A01007DFF
(1784261601.311225) vecan0 00EEFF10#0000E0FF00803C80
(1784261601.408397) vecan0 19FFD7E1#410000007DF41DFF
(1784261601.409006) vecan0 19FFD7E1#510000FFFFF41DFF
(1784261601.409632) vecan0 19FFD5E1#41FF0000FFFFFFFF
(1784261601.410246) vecan0 19FFD5E1#51FF0000FFFFFFFF
(1784261601.514826) vecan0 1DF01164#701752CFFFFFFFFF
(1784261601.516578) vecan0 18FECAA5#0545FFFFFFFFFFFF
(1784261601.517303) vecan0 19FECAA5#0545FFFFFFFFFFFF
(1784261601.517936) vecan0 19FFFDA5#0177FFFFFFFFFFFF
(1784261601.518568) vecan0 19FFFCA5#0177FFFFFFFFFFFF
(1784261601.519187) vecan0 19FFD7E1#410000007D0B1EFF
(1784261601.519845) vecan0 19FFD7E1#510000FFFF0B1EFF
(1784261601.520474) vecan0 19FFD5E1#41FF0000FFFFFFFF
(1784261601.521096) vecan0 19FFD5E1#51FF0000FFFFFFFF
(1784261601.612779) vecan0 19FFD7E1#410000007D0B1EFF
(1784261601.613391) vecan0 19FFD7E1#510000FFFF0B1EFF
(1784261601.614028) vecan0 19FFD5E1#41FF0000FFFFFFFF
(1784261601.614647) vecan0 19FFD5E1#51FF0000FFFFFFFF
(1784261601.710868) vecan0 19FFD7E1#410000007D0B1EFF
(1784261601.711496) vecan0 19FFD7E1#510000FFFF0B1EFF
(1784261601.712179) vecan0 19FFD5E1#41FF0000FFFFFFFF
(1784261601.712806) vecan0 19FFD5E1#51FF0000FFFFFFFF
(1784261601.772020) vecan0 01FFFDFA#F9140C01FFFFFFFF
(1784261601.811169) vecan0 19FFD7E1#410000007D0B1EFF
(1784261601.811766) vecan0 19FFD7E1#510000FFFF0B1EFF
(1784261601.812391) vecan0 19FFD5E1#41FF0000FFFFFFFF
(1784261601.812997) vecan0 19FFD5E1#51FF0000FFFFFFFF
(1784261601.813614) vecan0 19FFD4E1#0105FFFFFFFFFFFF
(1784261601.814227) vecan0 19FEA3E1#0101640A01007DFF
(1784261601.916872) vecan0 19FFD7E1#410000007D0B1EFF
(1784261601.917473) vecan0 19FFD7E1#510000FFFF0B1EFF
(1784261601.918140) vecan0 19FFD5E1#41FF0000FFFFFFFF
(1784261601.918750) vecan0 19FFD5E1#51FF0000FFFFFFFF
(1784261602.021296) vecan0 19FFFDA5#0177FFFFFFFFFFFF
(1784261602.021920) vecan0 19FFFCA5#0177FFFFFFFFFFFF
(1784261602.022549) vecan0 19FFD7E1#410000007DF41DFF
(1784261602.023173) vecan0 19FFD7E1#510000FFFFF41DFF
(1784261602.023797) vecan0 19FFD5E1#41FF0000FFFFFFFF
(1784261602.024405) vecan0 19FFD5E1#51FF0000FFFFFFFF
(1784261602.119996) vecan0 18FECAA3#0545FFFFFFFFFFFF
(1784261602.120618) vecan0 19FECAA3#0545FFFFFFFFFFFF
(1784261602.121252) vecan0 19FFD7E1#410000007DF41DFF
(1784261602.121878) vecan0 19FFD7E1#510000FFFFF41DFF
(1784261602.122517) vecan0 19FFD5E1#41FF0000FFFFFFFF
(1784261602.123141) vecan0 19FFD5E1#51FF0000FFFFFFFF
(1784261602.217575) vecan0 19FFD7E1#410000007DF41DFF
(1784261602.218194) vecan0 19FFD7E1#510000FFFFF41DFF
(1784261602.218835) vecan0 19FFD5E1#41FF0000FFFFFFFF
(1784261602.219502) vecan0 19FFD5E1#51FF0000FFFFFFFF
(1784261602.281295) vecan0 01FFFDFA#F9140C01FFFFFFFF
(1784261602.302358) vecan0 00EEFF10#0000E0FF00803C80
(1784261602.310934) vecan0 01FFFFFA#1A07110600131808
(1784261602.320222) vecan0 19FFD7E1#410000007DF41DFF
(1784261602.320832) vecan0 19FFD7E1#510000FFFFF41DFF
(1784261602.321457) vecan0 19FFD5E1#41FF0000FFFFFFFF
(1784261602.322077) vecan0 19FFD5E1#51FF0000FFFFFFFF
(1784261602.322701) vecan0 19FFD4E1#0105FFFFFFFFFFFF
(1784261602.323320) vecan0 19FEA3E1#0101640A01007DFF
(1784261602.417334) vecan0 19FFD7E1#410000007DF41DFF
(1784261602.417955) vecan0 19FFD7E1#510000FFFFF41DFF
(1784261602.418590) vecan0 19FFD5E1#41FF0000FFFFFFFF
(1784261602.419210) vecan0 19FFD5E1#51FF0000FFFFFFFF
(1784261602.519656) vecan0 19FFD7E1#410000007D0B1EFF
(1784261602.520258) vecan0 19FFD7E1#510000FFFF0B1EFF
(1784261602.520888) vecan0 19FFD5E1#41FF0000FFFFFFFF
(1784261602.521496) vecan0 19FFD5E1#51FF0000FFFFFFFF
(1784261602.619708) vecan0 19FFD7E1#410000007D0B1EFF
(1784261602.620312) vecan0 19FFD7E1#510000FFFF0B1EFF
(1784261602.620943) vecan0 19FFD5E1#41FF0000FFFFFFFF
(1784261602.621555) vecan0 19FFD5E1#51FF0000FFFFFFFF
(1784261602.719055) vecan0 19FFD7E1#410000007D0B1EFF
(1784261602.719668) vecan0 19FFD7E1#510000FFFF0B1EFF
(1784261602.720295) vecan0 19FFD5E1#41FF0000FFFFFFFF
(1784261602.720911) vecan0 19FFD5E1#51FF0000FFFFFFFF
(1784261602.767852) vecan0 01FFFDFA#F9140C01FFFFFFFF
(1784261602.824705) vecan0 19FFD7E1#410000007DF41DFF
(1784261602.825330) vecan0 19FFD7E1#510000FFFFF41DFF
(1784261602.825970) vecan0 19FFD5E1#41FF0000FFFFFFFF
(1784261602.826587) vecan0 19FFD5E1#51FF0000FFFFFFFF
(1784261602.827220) vecan0 19FFD4E1#0105FFFFFFFFFFFF
(1784261602.827835) vecan0 19FEA3E1#0101640A01007DFF
(1784261602.918201) vecan0 19FFD7E1#410000007DF41DFF
(1784261602.918811) vecan0 19FFD7E1#510000FFFFF41DFF
(1784261602.919439) vecan0 19FFD5E1#41FF0000FFFFFFFF
(1784261602.920049) vecan0 19FFD5E1#51FF0000FFFFFFFF
(1784261603.020159) vecan0 19FFD7E1#410000007DF41DFF
(1784261603.020771) vecan0 19FFD7E1#510000FFFFF41DFF
(1784261603.021405) vecan0 19FFD5E1#41FF0000FFFFFFFF
(1784261603.022013) vecan0 19FFD5E1#51FF0000FFFFFFFF
(1784261603.116656) vecan0 19FFD7E1#410000007DF41DFF
(1784261603.117276) vecan0 19FFD7E1#510000FFFFF41DFF
(1784261603.117914) vecan0 19FFD5E1#41FF0000FFFFFFFF
(1784261603.118533) vecan0 19FFD5E1#51FF0000FFFFFFFF
(1784261603.221367) vecan0 19FFD7E1#410000007DF41DFF
(1784261603.221983) vecan0 19FFD7E1#510000FFFFF41DFF
(1784261603.222607) vecan0 19FFD5E1#41FF0000FFFFFFFF
(1784261603.223290) vecan0 19FFD5E1#51FF0000FFFFFFFF
(1784261603.276681) vecan0 01FFFDFA#F9140C01FFFFFFFF
(1784261603.279549) vecan0 01FFDCFA#00E7260100FFFFFF
(1784261603.285969) vecan0 01FFB7FA#00000A00006801FF
(1784261603.287964) vecan0 01FFB7FA#01000A0000BD00FF
(1784261603.290255) vecan0 01FFB7FA#02000A00007B01FF
(1784261603.292658) vecan0 00FECAFA#4548010004FF
(1784261603.294850) vecan0 01FFB7FA#0348643C005400FF
(1784261603.297284) vecan0 01FFB7FA#0348643C005400FF
(1784261603.299872) vecan0 01FF9CFA#FA6626FFFFFFFFFF
(1784261603.305783) vecan0 01FF9CFA#F9FEFFFFFFFFFFFF
(1784261603.308390) vecan0 01FF9CFA#F8FEFFFFFFFFFFFF
(1784261603.310755) vecan0 00FECAFA#0558FFFFFFFF
(1784261603.312815) vecan0 00FECAFA#0558FFFFFFFF
(1784261603.314979) vecan0 00FECAFA#0558FFFFFFFF
(1784261603.317225) vecan0 00FECAFA#0558FFFFFFFF
(1784261603.319748) vecan0 00EEFF10#0000E0FF00803C80
(1784261603.322043) vecan0 01FFFFFA#1A07110600131908
(1784261603.324030) vecan0 01FF80FA#00000000002D05FF
(1784261603.325291) vecan0 19FFD7E1#410000007DF41DFF
(1784261603.325909) vecan0 19FFD7E1#510000FFFFF41DFF
(1784261603.326508) vecan0 01FFC7FA#010C01007DFF06FF
(1784261603.327089) vecan0 19FFD5E1#41FF0000FFFFFFFF
(1784261603.327743) vecan0 19FFD5E1#51FF0000FFFFFFFF
(1784261603.328405) vecan0 19FFD4E1#0105FFFFFFFFFFFF
(1784261603.328956) vecan0 01FFD4FA#00FFFFFFFFFFFFFF
(1784261603.329571) vecan0 19FEA3E1#0101640A01007DFF
(1784261603.331498) vecan0 01FFD4FA#00FFFFFFFFFFFFFF
(1784261603.333614) vecan0 01FFB3FA#FDFFFFFFFFFFFFFF
(1784261603.336155) vecan0 01FFB1FA#30FFFFFFFFFFFFFF
(1784261603.338191) vecan0 00FECAFA#0080FFFFFFFF
(1784261603.417978) vecan0 19FFD7E1#410000007D0B1EFF
(1784261603.418585) vecan0 19FFD7E1#510000FFFF0B1EFF
(1784261603.419217) vecan0 19FFD5E1#41FF0000FFFFFFFF
(1784261603.419834) vecan0 19FFD5E1#51FF0000FFFFFFFF
(1784261603.517034) vecan0 19FFD7E1#410000007D0B1EFF
(1784261603.517638) vecan0 19FFD7E1#510000FFFF0B1EFF
(1784261603.518264) vecan0 19FFD5E1#41FF0000FFFFFFFF
(1784261603.518878) vecan0 19FFD5E1#51FF0000FFFFFFFF
(1784261603.618060) vecan0 19FFD7E1#410000007D0B1EFF
(1784261603.618655) vecan0 19FFD7E1#510000FFFF0B1EFF
(1784261603.619275) vecan0 19FFD5E1#41FF0000FFFFFFFF
(1784261603.619886) vecan0 19FFD5E1#51FF0000FFFFFFFF
(1784261603.719061) vecan0 19FFD7E1#410000007D0B1EFF
(1784261603.719696) vecan0 19FFD7E1#510000FFFF0B1EFF
(1784261603.720336) vecan0 19FFD5E1#41FF0000FFFFFFFF
(1784261603.720950) vecan0 19FFD5E1#51FF0000FFFFFFFF
(1784261603.796712) vecan0 01FFFDFA#F9140C01FFFFFFFF
(1784261603.818487) vecan0 19FFD7E1#410000007D0B1EFF
(1784261603.830950) vecan0 19FFD7E1#510000FFFF0B1EFF
(1784261603.831583) vecan0 19FFD5E1#41FF0000FFFFFFFF
(1784261603.832198) vecan0 19FFD5E1#51FF0000FFFFFFFF
(1784261603.832807) vecan0 19FFD4E1#0105FFFFFFFFFFFF
(1784261603.833409) vecan0 19FEA3E1#0101640A01007DFF
(1784261603.916731) vecan0 19FFD7E1#410000007D0B1EFF
(1784261603.920905) vecan0 19FFD7E1#510000FFFF0B1EFF
(1784261603.921525) vecan0 19FFD5E1#41FF0000FFFFFFFF
(1784261603.922126) vecan0 19FFD5E1#51FF0000FFFFFFFF
(1784261604.016829) vecan0 19FFD7E1#410000007D0B1EFF
(1784261604.017435) vecan0 19FFD7E1#510000FFFF0B1EFF
(1784261604.018086) vecan0 19FFD5E1#41FF0000FFFFFFFF
(1784261604.018721) vecan0 19FFD5E1#51FF0000FFFFFFFF
(1784261604.118932) vecan0 19FFD7E1#410000007D0B1EFF
(1784261604.119542) vecan0 19FFD7E1#510000FFFF0B1EFF
(1784261604.120174) vecan0 19FFD5E1#41FF0000FFFFFFFF
(1784261604.120785) vecan0 19FFD5E1#51FF0000FFFFFFFF
(1784261604.217258) vecan0 19FFD7E1#410000007D0B1EFF
(1784261604.217864) vecan0 19FFD7E1#510000FFFF0B1EFF
(1784261604.218540) vecan0 19FFD5E1#41FF0000FFFFFFFF
(1784261604.219158) vecan0 19FFD5E1#51FF0000FFFFFFFF
(1784261604.273113) vecan0 01FFFDFA#F9140C01FFFFFFFF
(1784261604.281570) vecan0 01FF9CFA#FA6426FFFFFFFFFF
(1784261604.283399) vecan0 01FF9CFA#F9FEFFFFFFFFFFFF
(1784261604.285683) vecan0 01FF9CFA#F8FEFFFFFFFFFFFF
(1784261604.292378) vecan0 00EEFF10#0000E0FF00803C80
(1784261604.298217) vecan0 01FFFFFA#1A07110600131A08
(1784261604.319525) vecan0 19FFD7E1#410000007DF41DFF
(1784261604.320134) vecan0 19FFD7E1#510000FFFFF41DFF
(1784261604.320776) vecan0 19FFD5E1#41FF0000FFFFFFFF
(1784261604.321403) vecan0 19FFD5E1#51FF0000FFFFFFFF
(1784261604.322036) vecan0 19FFD4E1#0105FFFFFFFFFFFF
(1784261604.322643) vecan0 19FEA3E1#0101640A01007DFF
(1784261604.417958) vecan0 19FFD7E1#410000007DF41DFF
(1784261604.418566) vecan0 19FFD7E1#510000FFFFF41DFF
(1784261604.419206) vecan0 19FFD5E1#41FF0000FFFFFFFF
(1784261604.419828) vecan0 19FFD5E1#51FF0000FFFFFFFF
(1784261604.518049) vecan0 19FFD7E1#410000007DF41DFF
(1784261604.518672) vecan0 19FFD7E1#510000FFFFF41DFF
(1784261604.519329) vecan0 19FFD5E1#41FF0000FFFFFFFF
(1784261604.519959) vecan0 19FFD5E1#51FF0000FFFFFFFF
(1784261604.621897) vecan0 18FECAE2#0544FFFFFFFFFFFF
(1784261604.622516) vecan0 19FECAE2#0544FFFFFFFFFFFF
(1784261604.623155) vecan0 19FFD7E1#410000007DF41DFF
(1784261604.623844) vecan0 19FFD7E1#510000FFFFF41DFF
(1784261604.624537) vecan0 19FFD5E1#41FF0000FFFFFFFF
(1784261604.625205) vecan0 19FFD5E1#51FF0000FFFFFFFF
(1784261604.717138) vecan0 19FFD7E1#410000007DF41DFF
(1784261604.717757) vecan0 19FFD7E1#510000FFFFF41DFF
(1784261604.718392) vecan0 19FFD5E1#41FF0000FFFFFFFF
(1784261604.719009) vecan0 19FFD5E1#51FF0000FFFFFFFF
(1784261604.789575) vecan0 01FFFDFA#F9140C01FFFFFFFF
(1784261604.821645) vecan0 18FECAE1#1442000012FFFFFF
(1784261604.822254) vecan0 19FECAE1#1442000012FFFFFF
(1784261604.822878) vecan0 19FFD7E1#410000007DF41DFF
(1784261604.823492) vecan0 19FFD7E1#510000FFFFF41DFF
(1784261604.824132) vecan0 19FFD5E1#41FF0000FFFFFFFF
(1784261604.824753) vecan0 19FFD5E1#51FF0000FFFFFFFF
(1784261604.825383) vecan0 19FFD4E1#0105FFFFFFFFFFFF
(1784261604.825994) vecan0 19FFCAE1#01EB08007D271EFF
(1784261604.826587) vecan0 19FFCAE1#11B208007D271EFF
(1784261604.827209) vecan0 19FFC9E1#01FFFFFFFFFFFF14
(1784261604.827830) vecan0 19FFC8E1#01FF0000FFFFFFFF
(1784261604.828438) vecan0 19FFC8E1#11FF0000FFFFFFFF
(1784261604.829055) vecan0 19FFC7E1#010E016086C801FF
(1784261604.829681) vecan0 19FEA3E1#0101640A01007DFF
(1784261604.830299) vecan0 18FECAA4#0545FFFFFFFFFFFF
(1784261604.830935) vecan0 19FECAA4#0545FFFFFFFFFFFF
(1784261604.867446) vecan0 18FECAA0#0545FFFFFFFFFFFF
(1784261604.868059) vecan0 19FECAA0#0545FFFFFFFFFFFF
(1784261604.918116) vecan0 19FFD7E1#410000007DF41DFF
(1784261604.918733) vecan0 19FFD7E1#510000FFFFF41DFF
(1784261604.919361) vecan0 19FFD5E1#41FF0000FFFFFFFF
(1784261604.919976) vecan0 19FFD5E1#51FF0000FFFFFFFF
(1784261605.016777) vecan0 19FFD7E1#410000007DF41DFF
(1784261605.017400) vecan0 19FFD7E1#510000FFFFF41DFF
(1784261605.018040) vecan0 19FFD5E1#41FF0000FFFFFFFF
(1784261605.018663) vecan0 19FFD5E1#51FF0000FFFFFFFF
(1784261605.117957) vecan0 19FFD7E1#410000007DF41DFF
(1784261605.118571) vecan0 19FFD7E1#510000FFFFF41DFF
(1784261605.119202) vecan0 19FFD5E1#41FF0000FFFFFFFF
(1784261605.119815) vecan0 19FFD5E1#51FF0000FFFFFFFF
(1784261605.216577) vecan0 19FFD7E1#410000007D0B1EFF
(1784261605.217187) vecan0 19FFD7E1#510000FFFF0B1EFF
(1784261605.217822) vecan0 19FFD5E1#41FF0000FFFFFFFF
(1784261605.218443) vecan0 19FFD5E1#51FF0000FFFFFFFF
(1784261605.267503) vecan0 18FECAA2#0545FFFFFFFFFFFF
(1784261605.268129) vecan0 19FECAA2#0545FFFFFFFFFFFF
(1784261605.281385) vecan0 00EEFF10#0000E0FF00803C80
(1784261605.286795) vecan0 01FFFFFA#1A07110600131B08
(1784261605.302106) vecan0 01FFFDFA#F9140C01FFFFFFFF
(1784261605.310810) vecan0 01FF9CFA#FA6626FFFFFFFFFF
(1784261605.312746) vecan0 01FF9CFA#F9FEFFFFFFFFFFFF
(1784261605.314582) vecan0 01FF9CFA#F8FEFFFFFFFFFFFF
(1784261605.317290) vecan0 19FFD7E1#410000007D0B1EFF
(1784261605.317896) vecan0 19FFD7E1#510000FFFF0B1EFF
(1784261605.318524) vecan0 19FFD5E1#41FF0000FFFFFFFF
(1784261605.319161) vecan0 19FFD5E1#51FF0000FFFFFFFF
(1784261605.319774) vecan0 19FFD4E1#0105FFFFFFFFFFFF
(1784261605.320588) vecan0 19FEA3E1#0101640A01007DFF
(1784261605.419366) vecan0 19FFD7E1#410000007D0B1EFF
(1784261605.419982) vecan0 19FFD7E1#510000FFFF0B1EFF
(1784261605.420617) vecan0 19FFD5E1#41FF0000FFFFFFFF
(1784261605.421229) vecan0 19FFD5E1#51FF0000FFFFFFFF
(1784261605.519333) vecan0 19FFD7E1#410000007D0B1EFF
(1784261605.519942) vecan0 19FFD7E1#510000FFFF0B1EFF
(1784261605.520569) vecan0 19FFD5E1#41FF0000FFFFFFFF
(1784261605.521181) vecan0 19FFD5E1#51FF0000FFFFFFFF
(1784261605.617914) vecan0 19FFD7E1#410000007D0B1EFF
(1784261605.618523) vecan0 19FFD7E1#510000FFFF0B1EFF
(1784261605.619211) vecan0 19FFD5E1#41FF0000FFFFFFFF
(1784261605.619887) vecan0 19FFD5E1#51FF0000FFFFFFFF
(1784261605.716737) vecan0 19FFD7E1#410000007DF41DFF
(1784261605.717355) vecan0 19FFD7E1#510000FFFFF41DFF
(1784261605.717983) vecan0 19FFD5E1#41FF0000FFFFFFFF
(1784261605.718599) vecan0 19FFD5E1#51FF0000FFFFFFFF
(1784261605.782270) vecan0 01FFFDFA#F9140C01FFFFFFFF
(1784261605.819328) vecan0 19FFD7E1#410000007DF41DFF
(1784261605.819958) vecan0 19FFD7E1#510000FFFFF41DFF
(1784261605.820583) vecan0 19FFD5E1#41FF0000FFFFFFFF
(1784261605.821198) vecan0 19FFD5E1#51FF0000FFFFFFFF
(1784261605.821819) vecan0 19FFD4E1#0105FFFFFFFFFFFF
(1784261605.822469) vecan0 19FEA3E1#0101640A01007DFF
(1784261605.917782) vecan0 19FFD7E1#410000007DF41DFF
(1784261605.918461) vecan0 19FFD7E1#510000FFFFF41DFF
(1784261605.919093) vecan0 19FFD5E1#41FF0000FFFFFFFF
(1784261605.919697) vecan0 19FFD5E1#51FF0000FFFFFFFF
(1784261606.018876) vecan0 19FFD7E1#410000007DF41DFF
(1784261606.019490) vecan0 19FFD7E1#510000FFFFF41DFF
(1784261606.020166) vecan0 19FFD5E1#41FF0000FFFFFFFF
(1784261606.020768) vecan0 19FFD5E1#51FF0000FFFFFFFF
(1784261606.119397) vecan0 19FFD7E1#410000007DF41DFF
(1784261606.120260) vecan0 19FFD7E1#510000FFFFF41DFF
(1784261606.120895) vecan0 19FFD5E1#41FF0000FFFFFFFF
(1784261606.121508) vecan0 19FFD5E1#51FF0000FFFFFFFF
(1784261606.217754) vecan0 19FFD7E1#410000007DF41DFF
(1784261606.218369) vecan0 19FFD7E1#510000FFFFF41DFF
(1784261606.218998) vecan0 19FFD5E1#41FF0000FFFFFFFF
(1784261606.219757) vecan0 19FFD5E1#51FF0000FFFFFFFF
(1784261606.278529) vecan0 01FFFFFA#1A07110600131C08
(1784261606.293642) vecan0 01FFFDFA#F9140C01FFFFFFFF
(1784261606.296310) vecan0 01FFB7FA#0349643D005400FF
(1784261606.312826) vecan0 00EEFF10#0000E0FF00803C80
(1784261606.317806) vecan0 19FFD7E1#410000007DF41DFF
(1784261606.318415) vecan0 19FFD7E1#510000FFFFF41DFF
(1784261606.319063) vecan0 19FFD5E1#41FF0000FFFFFFFF
(1784261606.319708) vecan0 19FFD5E1#51FF0000FFFFFFFF
(1784261606.320328) vecan0 19FFD4E1#0105FFFFFFFFFFFF
(1784261606.320941) vecan0 19FEA3E1#0101640A01007DFF
(1784261606.416609) vecan0 19FFD7E1#410000007DF41DFF
(1784261606.417225) vecan0 19FFD7E1#510000FFFFF41DFF
(1784261606.417851) vecan0 19FFD5E1#41FF0000FFFFFFFF
(1784261606.418463) vecan0 19FFD5E1#51FF0000FFFFFFFF
