(1784259812.673498) vecan0 19FFD7E1#410000007DF41DFF
(1784259812.674115) vecan0 19FFD7E1#510000FFFFF41DFF
(1784259812.674750) vecan0 19FFD5E1#41FF0000FFFFFFFF
(1784259812.675367) vecan0 19FFD5E1#51FF0000FFFFFFFF
(1784259812.770440) vecan0 19FFD7E1#410000007DF41DFF
(1784259812.771144) vecan0 19FFD7E1#510000FFFFF41DFF
(1784259812.771773) vecan0 19FFD5E1#41FF0000FFFFFFFF
(1784259812.772390) vecan0 19FFD5E1#51FF0000FFFFFFFF
(1784259812.868920) vecan0 19FFD7E1#410000007DF41DFF
(1784259812.869529) vecan0 19FFD7E1#510000FFFFF41DFF
(1784259812.870197) vecan0 19FFD5E1#41FF0000FFFFFFFF
(1784259812.870852) vecan0 19FFD5E1#51FF0000FFFFFFFF
(1784259812.919755) vecan0 19FFFDA5#0177FFFFFFFFFFFF
(1784259812.920380) vecan0 19FFFCA5#0177FFFFFFFFFFFF
(1784259812.941333) vecan0 01FFFDFA#F9140B01FFFFFFFF
(1784259812.972264) vecan0 19FFD7E1#410000007DF41DFF
(1784259812.972870) vecan0 19FFD7E1#510000FFFFF41DFF
(1784259812.973492) vecan0 19FFD5E1#41FF0000FFFFFFFF
(1784259812.974104) vecan0 19FFD5E1#51FF0000FFFFFFFF
(1784259812.974723) vecan0 19FFD4E1#0105FFFFFFFFFFFF
(1784259812.975327) vecan0 19FFCAE1#018608007D271EFF
(1784259812.975931) vecan0 19FFCAE1#114E08007D271EFF
(1784259812.976569) vecan0 19FFC9E1#01FFFFFFFFFFFF14
(1784259812.977189) vecan0 19FFC8E1#01FF0000FFFFFFFF
(1784259812.977839) vecan0 19FFC8E1#11FF0000FFFFFFFF
(1784259812.978453) vecan0 19FEA3E1#0101640A01007DFF
(1784259813.073119) vecan0 19FFD7E1#410000007D0B1EFF
(1784259813.073726) vecan0 19FFD7E1#510000FFFF0B1EFF
(1784259813.074360) vecan0 19FFD5E1#41FF0000FFFFFFFF
(1784259813.074979) vecan0 19FFD5E1#51FF0000FFFFFFFF
(1784259813.172547) vecan0 19FFD7E1#410000007D0B1EFF
(1784259813.173159) vecan0 19FFD7E1#510000FFFF0B1EFF
(1784259813.173793) vecan0 19FFD5E1#41FF0000FFFFFFFF
(1784259813.174411) vecan0 19FFD5E1#51FF0000FFFFFFFF
(1784259813.272201) vecan0 18FECAE2#0544FFFFFFFFFFFF
(1784259813.272819) vecan0 19FECAE2#0544FFFFFFFFFFFF
(1784259813.273430) vecan0 19FFD7E1#410000007D0B1EFF
(1784259813.274029) vecan0 19FFD7E1#510000FFFF0B1EFF
(1784259813.274651) vecan0 19FFD5E1#41FF0000FFFFFFFF
(1784259813.275263) vecan0 19FFD5E1#51FF0000FFFFFFFF
(1784259813.370084) vecan0 19FFD7E1#410000007D0B1EFF
(1784259813.370765) vecan0 19FFD7E1#510000FFFF0B1EFF
(1784259813.371390) vecan0 19FFD5E1#41FF0000FFFFFFFF
(1784259813.372003) vecan0 19FFD5E1#51FF0000FFFFFFFF
(1784259813.419487) vecan0 01FFFDFA#F9140B01FFFFFFFF
(1784259813.422371) vecan0 01FFB7FA#00000A00006801FF
(1784259813.428653) vecan0 01FFB7FA#01000A0000BD00FF
(1784259813.430628) vecan0 01FFB7FA#02000A00007B01FF
(1784259813.432443) vecan0 00FECAFA#4548010004FF
(1784259813.435230) vecan0 01FFB7FA#0349643D005400FF
(1784259813.437321) vecan0 01FFB7FA#0349643D005400FF
(1784259813.439977) vecan0 01FF9CFA#FA6C26FFFFFFFFFF
(1784259813.445627) vecan0 01FF9CFA#F9FEFFFFFFFFFFFF
(1784259813.449084) vecan0 01FF9CFA#F8FEFFFFFFFFFFFF
(1784259813.451121) vecan0 00FECAFA#0558FFFFFFFF
(1784259813.453205) vecan0 00FECAFA#0558FFFFFFFF
(1784259813.455479) vecan0 00FECAFA#0558FFFFFFFF
(1784259813.457459) vecan0 00FECAFA#0558FFFFFFFF
(1784259813.460099) vecan0 00EEFF10#0000E0FF00803C80
(1784259813.462338) vecan0 01FFFFFA#1A07100517312308
(1784259813.464840) vecan0 01FF80FA#00000000002D05FF
(1784259813.466765) vecan0 01FFC7FA#010C01007DFF06FF
(1784259813.469192) vecan0 01FFD4FA#00FFFFFFFFFFFFFF
(1784259813.471313) vecan0 01FFD4FA#00FFFFFFFFFFFFFF
(1784259813.473346) vecan0 01FFB3FA#FDFFFFFFFFFFFFFF
(1784259813.475610) vecan0 01FFB1FA#30FFFFFFFFFFFFFF
(1784259813.477510) vecan0 00FECAFA#0080FFFFFFFF
(1784259813.478072) vecan0 18FECAE1#1442000012FFFFFF
(1784259813.480037) vecan0 01FFDCFA#00E7260100FFFFFF
(1784259813.490651) vecan0 19FECAE1#1442000012FFFFFF
(1784259813.491262) vecan0 19FFD7E1#410000007D0B1EFF
(1784259813.491867) vecan0 19FFD7E1#510000FFFF0B1EFF
(1784259813.492493) vecan0 19FFD5E1#41FF0000FFFFFFFF
(1784259813.493106) vecan0 19FFD5E1#51FF0000FFFFFFFF
(1784259813.493731) vecan0 19FFD4E1#0105FFFFFFFFFFFF
(1784259813.494351) vecan0 19FFC7E1#010E016086C801FF
(1784259813.494976) vecan0 19FEA3E1#0101640A01007DFF
(1784259813.495599) vecan0 18FECAA4#0545FFFFFFFFFFFF
(1784259813.496231) vecan0 19FECAA4#0545FFFFFFFFFFFF
(1784259813.523411) vecan0 18FECAA0#0545FFFFFFFFFFFF
(1784259813.524031) vecan0 19FECAA0#0545FFFFFFFFFFFF
(1784259813.571944) vecan0 19FFD7E1#410000007D0B1EFF
(1784259813.572552) vecan0 19FFD7E1#510000FFFF0B1EFF
(1784259813.573197) vecan0 19FFD5E1#41FF0000FFFFFFFF
(1784259813.573816) vecan0 19FFD5E1#51FF0000FFFFFFFF
(1784259813.677051) vecan0 19FFD7E1#410000007D0B1EFF
(1784259813.677663) vecan0 19FFD7E1#510000FFFF0B1EFF
(1784259813.678311) vecan0 19FFD5E1#41FF0000FFFFFFFF
(1784259813.678922) vecan0 19FFD5E1#51FF0000FFFFFFFF
(1784259813.769617) vecan0 19FFD7E1#410000007D0B1EFF
(1784259813.773553) vecan0 19FFD7E1#510000FFFF0B1EFF
(1784259813.774183) vecan0 19FFD5E1#41FF0000FFFFFFFF
(1784259813.774799) vecan0 19FFD5E1#51FF0000FFFFFFFF
(1784259813.871493) vecan0 19FFD7E1#410000007D0B1EFF
(1784259813.872107) vecan0 19FFD7E1#510000FFFF0B1EFF
(1784259813.872772) vecan0 19FFD5E1#41FF0000FFFFFFFF
(1784259813.873387) vecan0 19FFD5E1#51FF0000FFFFFFFF
(1784259813.922042) vecan0 18FECAA2#0545FFFFFFFFFFFF
(1784259813.922651) vecan0 19FECAA2#0545FFFFFFFFFFFF
(1784259813.940583) vecan0 01FFFDFA#F9140B01FFFFFFFF
(1784259813.979064) vecan0 19FFD7E1#410000007D0B1EFF
(1784259813.979664) vecan0 19FFD7E1#510000FFFF0B1EFF
(1784259813.980289) vecan0 19FFD5E1#41FF0000FFFFFFFF
(1784259813.980898) vecan0 19FFD5E1#51FF0000FFFFFFFF
(1784259813.981516) vecan0 19FFD4E1#0105FFFFFFFFFFFF
(1784259813.982126) vecan0 19FEA3E1#0101640A01007DFF
(1784259814.070389) vecan0 19FFD7E1#410000007D0B1EFF
(1784259814.071000) vecan0 19FFD7E1#510000FFFF0B1EFF
(1784259814.071635) vecan0 19FFD5E1#41FF0000FFFFFFFF
(1784259814.072254) vecan0 19FFD5E1#51FF0000FFFFFFFF
(1784259814.169717) vecan0 19FFD7E1#410000007D0B1EFF
(1784259814.170342) vecan0 19FFD7E1#510000FFFF0B1EFF
(1784259814.171014) vecan0 19FFD5E1#41FF0000FFFFFFFF
(1784259814.171632) vecan0 19FFD5E1#51FF0000FFFFFFFF
(1784259814.269793) vecan0 19FFD7E1#410000007D0B1EFF
(1784259814.270409) vecan0 19FFD7E1#510000FFFF0B1EFF
(1784259814.271046) vecan0 19FFD5E1#41FF0000FFFFFFFF
(1784259814.271662) vecan0 19FFD5E1#51FF0000FFFFFFFF
(1784259814.371824) vecan0 19FFD7E1#410000007D0B1EFF
(1784259814.372422) vecan0 19FFD7E1#510000FFFF0B1EFF
(1784259814.373055) vecan0 19FFD5E1#41FF0000FFFFFFFF
(1784259814.373662) vecan0 19FFD5E1#51FF0000FFFFFFFF
(1784259814.415660) vecan0 01FFFDFA#F9140B01FFFFFFFF
(1784259814.417972) vecan0 01FFC7FA#010B01007DFF06FF
(1784259814.434028) vecan0 00EEFF10#0000E0FF00803C80
(1784259814.442013) vecan0 01FFFFFA#1A07100517312408
(1784259814.472817) vecan0 19FFD7E1#410000007D0B1EFF
(1784259814.473424) vecan0 19FFD7E1#510000FFFF0B1EFF
(1784259814.474056) vecan0 19FFD5E1#41FF0000FFFFFFFF
(1784259814.474678) vecan0 19FFD5E1#51FF0000FFFFFFFF
(1784259814.475316) vecan0 19FFD4E1#0105FFFFFFFFFFFF
(1784259814.475945) vecan0 19FEA3E1#0101640A01007DFF
(1784259814.575965) vecan0 19FFD7E1#410000007D0B1EFF
(1784259814.576578) vecan0 19FFD7E1#510000FFFF0B1EFF
(1784259814.577210) vecan0 19FFD5E1#41FF0000FFFFFFFF
(1784259814.577825) vecan0 19FFD5E1#51FF0000FFFFFFFF
(1784259814.670914) vecan0 19FFD7E1#410000007D0B1EFF
(1784259814.671518) vecan0 19FFD7E1#510000FFFF0B1EFF
(1784259814.672151) vecan0 19FFD5E1#41FF0000FFFFFFFF
(1784259814.672773) vecan0 19FFD5E1#51FF0000FFFFFFFF
(1784259814.745928) vecan0 00EFFA9B#F4FFFFFFFFFFFFFF
(1784259814.751822) vecan0 00EF9BFA#F050105154000001
(1784259814.771208) vecan0 19FFD7E1#410000007D0B1EFF
(1784259814.771823) vecan0 19FFD7E1#510000FFFF0B1EFF
(1784259814.772455) vecan0 19FFD5E1#41FF0000FFFFFFFF
(1784259814.773077) vecan0 19FFD5E1#51FF0000FFFFFFFF
(1784259814.873329) vecan0 19FFD7E1#410000007D0B1EFF
(1784259814.873959) vecan0 19FFD7E1#510000FFFF0B1EFF
(1784259814.874595) vecan0 19FFD5E1#41FF0000FFFFFFFF
(1784259814.875211) vecan0 19FFD5E1#51FF0000FFFFFFFF
(1784259814.933169) vecan0 01FFFDFA#F9140B01FFFFFFFF
(1784259814.975983) vecan0 19FFD7E1#410000007D0B1EFF
(1784259814.976588) vecan0 19FFD7E1#510000FFFF0B1EFF
(1784259814.977220) vecan0 19FFD5E1#41FF0000FFFFFFFF
(1784259814.977828) vecan0 19FFD5E1#51FF0000FFFFFFFF
(1784259814.978452) vecan0 19FFD4E1#0105FFFFFFFFFFFF
(1784259814.979057) vecan0 19FEA3E1#0101640A01007DFF
(1784259815.072603) vecan0 19FFD7E1#410000007D0B1EFF
(1784259815.073214) vecan0 19FFD7E1#510000FFFF0B1EFF
(1784259815.073846) vecan0 19FFD5E1#41FF0000FFFFFFFF
(1784259815.074464) vecan0 19FFD5E1#51FF0000FFFFFFFF
(1784259815.173526) vecan0 19FFD7E1#410000007D0B1EFF
(1784259815.174141) vecan0 19FFD7E1#510000FFFF0B1EFF
(1784259815.174776) vecan0 19FFD5E1#41FF0000FFFFFFFF
(1784259815.175395) vecan0 19FFD5E1#51FF0000FFFFFFFF
(1784259815.270238) vecan0 19FFD7E1#410000007D0B1EFF
(1784259815.270848) vecan0 19FFD7E1#510000FFFF0B1EFF
(1784259815.271479) vecan0 19FFD5E1#41FF0000FFFFFFFF
(1784259815.272099) vecan0 19FFD5E1#51FF0000FFFFFFFF
(1784259815.372383) vecan0 19FFD7E1#410000007D0B1EFF
(1784259815.372987) vecan0 19FFD7E1#510000FFFF0B1EFF
(1784259815.373623) vecan0 19FFD5E1#41FF0000FFFFFFFF
(1784259815.374242) vecan0 19FFD5E1#51FF0000FFFFFFFF
(1784259815.421739) vecan0 00EEFF10#0000E0FF00803C80
(1784259815.427422) vecan0 01FFFFFA#1A07100517312508
(1784259815.442993) vecan0 01FFFDFA#F9140B01FFFFFFFF
(1784259815.445416) vecan0 01FFB7FA#0348643C005400FF
(1784259815.469095) vecan0 19FFD7E1#410000007D0B1EFF
(1784259815.469703) vecan0 19FFD7E1#510000FFFF0B1EFF
(1784259815.470340) vecan0 19FFD5E1#41FF0000FFFFFFFF
(1784259815.470956) vecan0 19FFD5E1#51FF0000FFFFFFFF
(1784259815.471583) vecan0 19FFD4E1#0105FFFFFFFFFFFF
(1784259815.472201) vecan0 19FEA3E1#0101640A01007DFF
(1784259815.571571) vecan0 19FFD7E1#410000007D0B1EFF
(1784259815.572179) vecan0 19FFD7E1#510000FFFF0B1EFF
(1784259815.572812) vecan0 19FFD5E1#41FF0000FFFFFFFF
(1784259815.573426) vecan0 19FFD5E1#51FF0000FFFFFFFF
(1784259815.672914) vecan0 19FFD7E1#410000007D0B1EFF
(1784259815.673544) vecan0 19FFD7E1#510000FFFF0B1EFF
(1784259815.674178) vecan0 19FFD5E1#41FF0000FFFFFFFF
(1784259815.674824) vecan0 19FFD5E1#51FF0000FFFFFFFF
(1784259815.774133) vecan0 18FECAA3#0545FFFFFFFFFFFF
(1784259815.774740) vecan0 19FECAA3#0545FFFFFFFFFFFF
(1784259815.775342) vecan0 19FFD7E1#410000007D0B1EFF
(1784259815.775941) vecan0 19FFD7E1#510000FFFF0B1EFF
(1784259815.776557) vecan0 19FFD5E1#41FF0000FFFFFFFF
(1784259815.777168) vecan0 19FFD5E1#51FF0000FFFFFFFF
(1784259815.878905) vecan0 19FFD7E1#410000007D0B1EFF
(1784259815.879515) vecan0 19FFD7E1#510000FFFF0B1EFF
(1784259815.880147) vecan0 19FFD5E1#41FF0000FFFFFFFF
(1784259815.880759) vecan0 19FFD5E1#51FF0000FFFFFFFF
(1784259815.921227) vecan0 01FFFDFA#F9140B01FFFFFFFF
(1784259815.968995) vecan0 19FFD7E1#410000007D0B1EFF
(1784259815.969621) vecan0 19FFD7E1#510000FFFF0B1EFF
(1784259815.970255) vecan0 19FFD5E1#41FF0000FFFFFFFF
(1784259815.970868) vecan0 19FFD5E1#51FF0000FFFFFFFF
(1784259815.971487) vecan0 19FFD4E1#0105FFFFFFFFFFFF
(1784259815.972153) vecan0 19FEA3E1#0101640A01007DFF
(1784259816.074375) vecan0 19FFD7E1#410000007D0B1EFF
(1784259816.074981) vecan0 19FFD7E1#510000FFFF0B1EFF
(1784259816.075609) vecan0 19FFD5E1#41FF0000FFFFFFFF
(1784259816.076222) vecan0 19FFD5E1#51FF0000FFFFFFFF
(1784259816.170447) vecan0 19FFD7E1#410000007D0B1EFF
(1784259816.171050) vecan0 19FFD7E1#510000FFFF0B1EFF
(1784259816.171786) vecan0 19FFD5E1#41FF0000FFFFFFFF
(1784259816.172406) vecan0 19FFD5E1#51FF0000FFFFFFFF
(1784259816.275044) vecan0 19FFD7E1#410000007D0B1EFF
(1784259816.275640) vecan0 19FFD7E1#510000FFFF0B1EFF
(1784259816.276259) vecan0 19FFD5E1#41FF0000FFFFFFFF
(1784259816.276868) vecan0 19FFD5E1#51FF0000FFFFFFFF
(1784259816.373512) vecan0 19FFD7E1#410000007D0B1EFF
(1784259816.374117) vecan0 19FFD7E1#510000FFFF0B1EFF
(1784259816.374749) vecan0 19FFD5E1#41FF0000FFFFFFFF
(1784259816.375357) vecan0 19FFD5E1#51FF0000FFFFFFFF
(1784259816.419947) vecan0 01FFFFFA#1A07100517312608
(1784259816.435113) vecan0 01FFFDFA#F9140B01FFFFFFFF
(1784259816.453613) vecan0 00EEFF10#0000E0FF00803C80
(1784259816.474957) vecan0 19FFD7E1#410000007D0B1EFF
(1784259816.475550) vecan0 19FFD7E1#510000FFFF0B1EFF
(1784259816.476169) vecan0 19FFD5E1#41FF0000FFFFFFFF
(1784259816.476776) vecan0 19FFD5E1#51FF0000FFFFFFFF
(1784259816.477389) vecan0 19FFD4E1#0105FFFFFFFFFFFF
(1784259816.478006) vecan0 19FEA3E1#0101640A01007DFF
(1784259816.569401) vecan0 19FFD7E1#410000007D0B1EFF
(1784259816.570010) vecan0 19FFD7E1#510000FFFF0B1EFF
(1784259816.570648) vecan0 19FFD5E1#41FF0000FFFFFFFF
(1784259816.571272) vecan0 19FFD5E1#51FF0000FFFFFFFF
(1784259816.669345) vecan0 19FFD7E1#410000007D0B1EFF
(1784259816.669947) vecan0 19FFD7E1#510000FFFF0B1EFF
(1784259816.670580) vecan0 19FFD5E1#41FF0000FFFFFFFF
(1784259816.671202) vecan0 19FFD5E1#51FF0000FFFFFFFF
(1784259816.770602) vecan0 19FFD7E1#410000007D0B1EFF
(1784259816.771205) vecan0 19FFD7E1#510000FFFF0B1EFF
(1784259816.771837) vecan0 19FFD5E1#41FF0000FFFFFFFF
(1784259816.772452) vecan0 19FFD5E1#51FF0000FFFFFFFF
(1784259816.868587) vecan0 19FFD7E1#410000007DF41DFF
(1784259816.869204) vecan0 19FFD7E1#510000FFFFF41DFF
(1784259816.869835) vecan0 19FFD5E1#41FF0000FFFFFFFF
(1784259816.870452) vecan0 19FFD5E1#51FF0000FFFFFFFF
(1784259816.912832) vecan0 01FFFDFA#F9140B01FFFFFFFF
(1784259816.971063) vecan0 19FFD7E1#410000007DF41DFF
(1784259816.971668) vecan0 19FFD7E1#510000FFFFF41DFF
(1784259816.972289) vecan0 19FFD5E1#41FF0000FFFFFFFF
(1784259816.972891) vecan0 19FFD5E1#51FF0000FFFFFFFF
(1784259816.973512) vecan0 19FFD4E1#0105FFFFFFFFFFFF
(1784259816.974122) vecan0 19FEA3E1#0101640A01007DFF
(1784259817.069898) vecan0 19FFD7E1#410000007DF41DFF
(1784259817.070510) vecan0 19FFD7E1#510000FFFFF41DFF
(1784259817.071135) vecan0 19FFD5E1#41FF0000FFFFFFFF
(1784259817.071749) vecan0 19FFD5E1#51FF0000FFFFFFFF
(1784259817.172593) vecan0 19FFD7E1#410000007DF41DFF
(1784259817.173203) vecan0 19FFD7E1#510000FFFFF41DFF
(1784259817.173839) vecan0 19FFD5E1#41FF0000FFFFFFFF
(1784259817.174456) vecan0 19FFD5E1#51FF0000FFFFFFFF
(1784259817.272258) vecan0 19FFD7E1#410000007DF41DFF
(1784259817.272876) vecan0 19FFD7E1#510000FFFFF41DFF
(1784259817.273511) vecan0 19FFD5E1#41FF0000FFFFFFFF
(1784259817.274126) vecan0 19FFD5E1#51FF0000FFFFFFFF
(1784259817.370695) vecan0 19FFD7E1#410000007DF41DFF
(1784259817.371308) vecan0 19FFD7E1#510000FFFFF41DFF
(1784259817.371942) vecan0 19FFD5E1#41FF0000FFFFFFFF
(1784259817.372562) vecan0 19FFD5E1#51FF0000FFFFFFFF
(1784259817.421292) vecan0 01FFFDFA#F9140B01FFFFFFFF
(1784259817.432333) vecan0 01FFB7FA#0349643D005400FF
(1784259817.442385) vecan0 00EEFF10#0000E0FF00803C80
(1784259817.450578) vecan0 01FFFFFA#1A07100517312708
(1784259817.469759) vecan0 19FFD7E1#410000007D0B1EFF
(1784259817.470355) vecan0 19FFD7E1#510000FFFF0B1EFF
(1784259817.470981) vecan0 19FFD5E1#41FF0000FFFFFFFF
(1784259817.471592) vecan0 19FFD5E1#51FF0000FFFFFFFF
(1784259817.472222) vecan0 19FFD4E1#0105FFFFFFFFFFFF
(1784259817.472843) vecan0 19FEA3E1#0101640A01007DFF
(1784259817.572793) vecan0 19FFD7E1#410000007D0B1EFF
(1784259817.573401) vecan0 19FFD7E1#510000FFFF0B1EFF
(1784259817.574028) vecan0 19FFD5E1#41FF0000FFFFFFFF
(1784259817.574641) vecan0 19FFD5E1#51FF0000FFFFFFFF
(1784259817.672042) vecan0 19FFD7E1#410000007D0B1EFF
(1784259817.672649) vecan0 19FFD7E1#510000FFFF0B1EFF
(1784259817.673285) vecan0 19FFD5E1#41FF0000FFFFFFFF
(1784259817.673901) vecan0 19FFD5E1#51FF0000FFFFFFFF
(1784259817.769398) vecan0 19FFD7E1#410000007D0B1EFF
(1784259817.770000) vecan0 19FFD7E1#510000FFFF0B1EFF
(1784259817.770623) vecan0 19FFD5E1#41FF0000FFFFFFFF
(1784259817.771239) vecan0 19FFD5E1#51FF0000FFFFFFFF
(1784259817.905023) vecan0 19FFD7E1#410000007D0B1EFF
(1784259817.905637) vecan0 19FFD7E1#510000FFFF0B1EFF
(1784259817.906269) vecan0 19FFD5E1#41FF0000FFFFFFFF
(1784259817.906883) vecan0 19FFD5E1#51FF0000FFFFFFFF
(1784259817.941605) vecan0 01FFFDFA#F9140B01FFFFFFFF
(1784259817.975991) vecan0 19FFD7E1#410000007D0B1EFF
(1784259817.976612) vecan0 19FFD7E1#510000FFFF0B1EFF
(1784259817.977247) vecan0 19FFD5E1#41FF0000FFFFFFFF
(1784259817.977951) vecan0 19FFD5E1#51FF0000FFFFFFFF
(1784259817.978581) vecan0 19FFD4E1#0105FFFFFFFFFFFF
(1784259817.979187) vecan0 19FFCAE1#019108007D271EFF
(1784259817.979792) vecan0 19FFCAE1#114E08007D271EFF
(1784259817.980424) vecan0 19FFC9E1#01FFFFFFFFFFFF14
(1784259817.981063) vecan0 19FFC8E1#01FF0000FFFFFFFF
(1784259817.981686) vecan0 19FFC8E1#11FF0000FFFFFFFF
(1784259817.982306) vecan0 19FEA3E1#0101640A01007DFF
(1784259818.107195) vecan0 19FFD7E1#410000007D0B1EFF
(1784259818.107801) vecan0 19FFD7E1#510000FFFF0B1EFF
(1784259818.108435) vecan0 19FFD5E1#41FF0000FFFFFFFF
(1784259818.109036) vecan0 19FFD5E1#51FF0000FFFFFFFF
(1784259818.171759) vecan0 19FFD7E1#410000007D0B1EFF
(1784259818.172375) vecan0 19FFD7E1#510000FFFF0B1EFF
(1784259818.173032) vecan0 19FFD5E1#41FF0000FFFFFFFF
(1784259818.173651) vecan0 19FFD5E1#51FF0000FFFFFFFF
(1784259818.282299) vecan0 18FECAE2#0544FFFFFFFFFFFF
(1784259818.282917) vecan0 19FECAE2#0544FFFFFFFFFFFF
(1784259818.283559) vecan0 19FFD7E1#410000007D0B1EFF
(1784259818.284165) vecan0 19FFD7E1#510000FFFF0B1EFF
(1784259818.284793) vecan0 19FFD5E1#41FF0000FFFFFFFF
(1784259818.285402) vecan0 19FFD5E1#51FF0000FFFFFFFF
(1784259818.292745) vecan0 18EEFFA5#FC01C02C00AA46C0
(1784259818.371878) vecan0 19FFD7E1#410000007D0B1EFF
(1784259818.372485) vecan0 19FFD7E1#510000FFFF0B1EFF
(1784259818.373114) vecan0 19FFD5E1#41FF0000FFFFFFFF
(1784259818.373720) vecan0 19FFD5E1#51FF0000FFFFFFFF
(1784259818.417225) vecan0 01FFFDFA#F9140B01FFFFFFFF
(1784259818.420198) vecan0 01FFB7FA#00000A00006801FF
(1784259818.426804) vecan0 01FFB7FA#01000A0000BD00FF
(1784259818.429050) vecan0 01FFB7FA#02000A00007B01FF
(1784259818.430843) vecan0 00FECAFA#4548010004FF
(1784259818.433537) vecan0 01FFB7FA#0348643C005400FF
(1784259818.435683) vecan0 01FFB7FA#0348643C005400FF
(1784259818.437980) vecan0 01FF9CFA#FA6C26FFFFFFFFFF
(1784259818.440610) vecan0 01FF9CFA#F9FEFFFFFFFFFFFF
(1784259818.446430) vecan0 01FF9CFA#F8FEFFFFFFFFFFFF
(1784259818.449663) vecan0 00FECAFA#0558FFFFFFFF
(1784259818.451372) vecan0 00FECAFA#0558FFFFFFFF
(1784259818.453827) vecan0 00FECAFA#0558FFFFFFFF
(1784259818.455850) vecan0 00FECAFA#0558FFFFFFFF
(1784259818.458230) vecan0 00EEFF10#0000E0FF00803C80
(1784259818.460658) vecan0 01FFFFFA#1A07100517312808
(1784259818.462932) vecan0 01FF80FA#00000000002D05FF
(1784259818.465146) vecan0 01FFC7FA#010B01007DFF06FF
(1784259818.467187) vecan0 01FFD4FA#00FFFFFFFFFFFFFF
(1784259818.469526) vecan0 01FFD4FA#00FFFFFFFFFFFFFF
(1784259818.471496) vecan0 01FFB3FA#FDFFFFFFFFFFFFFF
(1784259818.473966) vecan0 01FFB1FA#30FFFFFFFFFFFFFF
(1784259818.475894) vecan0 00FECAFA#0080FFFFFFFF
(1784259818.476465) vecan0 18FECAE1#1442000012FFFFFF
(1784259818.478355) vecan0 01FFDCFA#00E7260100FFFFFF
(1784259818.482157) vecan0 19FECAE1#1442000012FFFFFF
(1784259818.482767) vecan0 19FFD7E1#410000007D0B1EFF
(1784259818.483379) vecan0 19FFD7E1#510000FFFF0B1EFF
(1784259818.484006) vecan0 19FFD5E1#41FF0000FFFFFFFF
(1784259818.484618) vecan0 19FFD5E1#51FF0000FFFFFFFF
(1784259818.485243) vecan0 19FFD4E1#0105FFFFFFFFFFFF
(1784259818.485866) vecan0 19FFC7E1#010E016086C801FF
(1784259818.486509) vecan0 19FEA3E1#0101640A01007DFF
(1784259818.487184) vecan0 18FECAA4#0545FFFFFFFFFFFF
(1784259818.487810) vecan0 19FECAA4#0545FFFFFFFFFFFF
(1784259818.524256) vecan0 18FECAA0#0545FFFFFFFFFFFF
(1784259818.524875) vecan0 19FECAA0#0545FFFFFFFFFFFF
(1784259818.569610) vecan0 18FECAA5#0545FFFFFFFFFFFF
(1784259818.570229) vecan0 19FECAA5#0545FFFFFFFFFFFF
(1784259818.570833) vecan0 19FFD7E1#410000007D0B1EFF
(1784259818.571434) vecan0 19FFD7E1#510000FFFF0B1EFF
(1784259818.572058) vecan0 19FFD5E1#41FF0000FFFFFFFF
(1784259818.572671) vecan0 19FFD5E1#51FF0000FFFFFFFF
(1784259818.669246) vecan0 19FFD7E1#410000007D0B1EFF
(1784259818.669844) vecan0 19FFD7E1#510000FFFF0B1EFF
(1784259818.670473) vecan0 19FFD5E1#41FF0000FFFFFFFF
(1784259818.671095) vecan0 19FFD5E1#51FF0000FFFFFFFF
(1784259818.769642) vecan0 19FFD7E1#410000007D0B1EFF
(1784259818.770237) vecan0 19FFD7E1#510000FFFF0B1EFF
(1784259818.770872) vecan0 19FFD5E1#41FF0000FFFFFFFF
(1784259818.771487) vecan0 19FFD5E1#51FF0000FFFFFFFF
(1784259818.872941) vecan0 19FFD7E1#410000007D0B1EFF
(1784259818.873541) vecan0 19FFD7E1#510000FFFF0B1EFF
(1784259818.874172) vecan0 19FFD5E1#41FF0000FFFFFFFF
(1784259818.874786) vecan0 19FFD5E1#51FF0000FFFFFFFF
(1784259818.921026) vecan0 18FECAA2#0545FFFFFFFFFFFF
(1784259818.921633) vecan0 19FECAA2#0545FFFFFFFFFFFF
(1784259818.939257) vecan0 01FFFDFA#F9140B01FFFFFFFF
(1784259818.973470) vecan0 19FFD7E1#410000007D0B1EFF
(1784259818.974073) vecan0 19FFD7E1#510000FFFF0B1EFF
(1784259818.974698) vecan0 19FFD5E1#41FF0000FFFFFFFF
(1784259818.975304) vecan0 19FFD5E1#51FF0000FFFFFFFF
(1784259818.975924) vecan0 19FFD4E1#0105FFFFFFFFFFFF
(1784259818.976537) vecan0 19FEA3E1#0101640A01007DFF
(1784259819.074770) vecan0 19FFD7E1#410000007DF41DFF
(1784259819.075376) vecan0 19FFD7E1#510000FFFFF41DFF
(1784259819.076006) vecan0 19FFD5E1#41FF0000FFFFFFFF
(1784259819.076619) vecan0 19FFD5E1#51FF0000FFFFFFFF
(1784259819.172749) vecan0 19FFD7E1#410000007DF41DFF
(1784259819.173363) vecan0 19FFD7E1#510000FFFFF41DFF
(1784259819.173997) vecan0 19FFD5E1#41FF0000FFFFFFFF
(1784259819.174610) vecan0 19FFD5E1#51FF0000FFFFFFFF
(1784259819.271209) vecan0 19FFD7E1#410000007DF41DFF
(1784259819.271826) vecan0 19FFD7E1#510000FFFFF41DFF
(1784259819.272454) vecan0 19FFD5E1#41FF0000FFFFFFFF
(1784259819.273065) vecan0 19FFD5E1#51FF0000FFFFFFFF
(1784259819.370431) vecan0 19FFD7E1#410000007DF41DFF
(1784259819.371047) vecan0 19FFD7E1#510000FFFFF41DFF
(1784259819.371714) vecan0 19FFD5E1#41FF0000FFFFFFFF
(1784259819.372326) vecan0 19FFD5E1#51FF0000FFFFFFFF
(1784259819.415604) vecan0 01FFFDFA#F9140B01FFFFFFFF
(1784259819.434653) vecan0 00EEFF10#0000E0FF00803C80
(1784259819.442826) vecan0 01FFFFFA#1A07100517312908
(1784259819.472139) vecan0 19FFD7E1#410000007DF41DFF
(1784259819.472748) vecan0 19FFD7E1#510000FFFFF41DFF
(1784259819.473382) vecan0 19FFD5E1#41FF0000FFFFFFFF
(1784259819.473994) vecan0 19FFD5E1#51FF0000FFFFFFFF
(1784259819.474687) vecan0 19FFD4E1#0105FFFFFFFFFFFF
(1784259819.475302) vecan0 19FEA3E1#0101640A01007DFF
(1784259819.571631) vecan0 19FFD7E1#410000007DF41DFF
(1784259819.572248) vecan0 19FFD7E1#510000FFFFF41DFF
(1784259819.572882) vecan0 19FFD5E1#41FF0000FFFFFFFF
(1784259819.573500) vecan0 19FFD5E1#51FF0000FFFFFFFF
(1784259819.668494) vecan0 19FFD7E1#410000007DF41DFF
(1784259819.669108) vecan0 19FFD7E1#510000FFFFF41DFF
(1784259819.669732) vecan0 19FFD5E1#41FF0000FFFFFFFF
(1784259819.670341) vecan0 19FFD5E1#51FF0000FFFFFFFF
(1784259819.771120) vecan0 19FFD7E1#410000007DF41DFF
(1784259819.771728) vecan0 19FFD7E1#510000FFFFF41DFF
(1784259819.772353) vecan0 19FFD5E1#41FF0000FFFFFFFF
(1784259819.772964) vecan0 19FFD5E1#51FF0000FFFFFFFF
(1784259819.872408) vecan0 19FFD7E1#410000007DF41DFF
(1784259819.873025) vecan0 19FFD7E1#510000FFFFF41DFF
(1784259819.873661) vecan0 19FFD5E1#41FF0000FFFFFFFF
(1784259819.874275) vecan0 19FFD5E1#51FF0000FFFFFFFF
(1784259819.931425) vecan0 01FFFDFA#F9140B01FFFFFFFF
(1784259819.970003) vecan0 19FFD7E1#410000007DF41DFF
(1784259819.970621) vecan0 19FFD7E1#510000FFFFF41DFF
(1784259819.971258) vecan0 19FFD5E1#41FF0000FFFFFFFF
(1784259819.971883) vecan0 19FFD5E1#51FF0000FFFFFFFF
(1784259819.972518) vecan0 19FFD4E1#0105FFFFFFFFFFFF
(1784259819.973143) vecan0 19FEA3E1#0101640A01007DFF
(1784259820.071084) vecan0 19FFD7E1#410000007D0B1EFF
(1784259820.071688) vecan0 19FFD7E1#510000FFFF0B1EFF
(1784259820.072317) vecan0 19FFD5E1#41FF0000FFFFFFFF
(1784259820.072931) vecan0 19FFD5E1#51FF0000FFFFFFFF
(1784259820.173933) vecan0 19FFD7E1#410000007D0B1EFF
(1784259820.174532) vecan0 19FFD7E1#510000FFFF0B1EFF
(1784259820.175164) vecan0 19FFD5E1#41FF0000FFFFFFFF
(1784259820.175773) vecan0 19FFD5E1#51FF0000FFFFFFFF
(1784259820.271593) vecan0 19FFFDA5#0177FFFFFFFFFFFF
(1784259820.272216) vecan0 19FFFCA5#0177FFFFFFFFFFFF
(1784259820.272827) vecan0 19FFD7E1#410000007D0B1EFF
(1784259820.273436) vecan0 19FFD7E1#510000FFFF0B1EFF
(1784259820.274070) vecan0 19FFD5E1#41FF0000FFFFFFFF
(1784259820.274686) vecan0 19FFD5E1#51FF0000FFFFFFFF
(1784259820.370912) vecan0 19FFD7E1#410000007D0B1EFF
(1784259820.371584) vecan0 19FFD7E1#510000FFFF0B1EFF
(1784259820.372210) vecan0 19FFD5E1#41FF0000FFFFFFFF
(1784259820.372819) vecan0 19FFD5E1#51FF0000FFFFFFFF
(1784259820.423362) vecan0 00EEFF10#0000E0FF00803C80
(1784259820.426588) vecan0 01FFFFFA#1A07100517312A08
(1784259820.441266) vecan0 01FFFDFA#F9140B01FFFFFFFF
(1784259820.473160) vecan0 19FFD7E1#410000007D0B1EFF
(1784259820.473765) vecan0 19FFD7E1#510000FFFF0B1EFF
(1784259820.474399) vecan0 19FFD5E1#41FF0000FFFFFFFF
(1784259820.475016) vecan0 19FFD5E1#51FF0000FFFFFFFF
(1784259820.475640) vecan0 19FFD4E1#0105FFFFFFFFFFFF
(1784259820.476261) vecan0 19FEA3E1#0101640A01007DFF
(1784259820.568474) vecan0 19FFD7E1#410000007D0B1EFF
(1784259820.569078) vecan0 19FFD7E1#510000FFFF0B1EFF
(1784259820.569706) vecan0 19FFD5E1#41FF0000FFFFFFFF
(1784259820.570312) vecan0 19FFD5E1#51FF0000FFFFFFFF
(1784259820.668592) vecan0 19FFD7E1#410000007D0B1EFF
(1784259820.669194) vecan0 19FFD7E1#510000FFFF0B1EFF
(1784259820.669826) vecan0 19FFD5E1#41FF0000FFFFFFFF
(1784259820.670442) vecan0 19FFD5E1#51FF0000FFFFFFFF
(1784259820.770941) vecan0 19FFFDA5#0177FFFFFFFFFFFF
(1784259820.771564) vecan0 19FFFCA5#0177FFFFFFFFFFFF
(1784259820.772178) vecan0 18FECAA3#0545FFFFFFFFFFFF
(1784259820.772796) vecan0 19FECAA3#0545FFFFFFFFFFFF
(1784259820.773454) vecan0 19FFD7E1#410000007D0B1EFF
(1784259820.774066) vecan0 19FFD7E1#510000FFFF0B1EFF
(1784259820.774722) vecan0 19FFD5E1#41FF0000FFFFFFFF
(1784259820.775334) vecan0 19FFD5E1#51FF0000FFFFFFFF
(1784259820.873995) vecan0 19FFD7E1#410000007D0B1EFF
(1784259820.874603) vecan0 19FFD7E1#510000FFFF0B1EFF
(1784259820.875241) vecan0 19FFD5E1#41FF0000FFFFFFFF
(1784259820.875855) vecan0 19FFD5E1#51FF0000FFFFFFFF
(1784259820.922076) vecan0 01FFFDFA#F9140B01FFFFFFFF
(1784259820.978548) vecan0 19FFD7E1#410000007DF41DFF
(1784259820.979171) vecan0 19FFD7E1#510000FFFFF41DFF
(1784259820.979829) vecan0 19FFD5E1#41FF0000FFFFFFFF
(1784259820.980453) vecan0 19FFD5E1#51FF0000FFFFFFFF
(1784259820.981098) vecan0 19FFD4E1#0105FFFFFFFFFFFF
(1784259820.981723) vecan0 19FEA3E1#0101640A01007DFF
(1784259821.070054) vecan0 19FFD7E1#410000007DF41DFF
(1784259821.070664) vecan0 19FFD7E1#510000FFFFF41DFF
(1784259821.071299) vecan0 19FFD5E1#41FF0000FFFFFFFF
(1784259821.071918) vecan0 19FFD5E1#51FF0000FFFFFFFF
(1784259821.172425) vecan0 19FFD7E1#410000007DF41DFF
(1784259821.173036) vecan0 19FFD7E1#510000FFFFF41DFF
(1784259821.173662) vecan0 19FFD5E1#41FF0000FFFFFFFF
(1784259821.174274) vecan0 19FFD5E1#51FF0000FFFFFFFF
(1784259821.274971) vecan0 19FFFDA5#0177FFFFFFFFFFFF
(1784259821.275623) vecan0 19FFFCA5#0177FFFFFFFFFFFF
(1784259821.276247) vecan0 19FFD7E1#410000007DF41DFF
(1784259821.276867) vecan0 19FFD7E1#510000FFFFF41DFF
(1784259821.277500) vecan0 19FFD5E1#41FF0000FFFFFFFF
(1784259821.278117) vecan0 19FFD5E1#51FF0000FFFFFFFF
(1784259821.371351) vecan0 19FFD7E1#410000007DF41DFF
(1784259821.371957) vecan0 19FFD7E1#510000FFFFF41DFF
(1784259821.372583) vecan0 19FFD5E1#41FF0000FFFFFFFF
(1784259821.373217) vecan0 19FFD5E1#51FF0000FFFFFFFF
(1784259821.419395) vecan0 01FFFFFA#1A07100517312B08
(1784259821.434452) vecan0 01FFFDFA#F9140B01FFFFFFFF
(1784259821.452827) vecan0 00EEFF10#0000E0FF00803C80
(1784259821.468690) vecan0 19FFD7E1#410000007DF41DFF
(1784259821.469340) vecan0 19FFD7E1#510000FFFFF41DFF
(1784259821.469964) vecan0 19FFD5E1#41FF0000FFFFFFFF
(1784259821.470577) vecan0 19FFD5E1#51FF0000FFFFFFFF
(1784259821.471199) vecan0 19FFD4E1#0105FFFFFFFFFFFF
(1784259821.471824) vecan0 19FEA3E1#0101640A01007DFF
(1784259821.571100) vecan0 19FFD7E1#410000007DF41DFF
(1784259821.571725) vecan0 19FFD7E1#510000FFFFF41DFF
(1784259821.572363) vecan0 19FFD5E1#41FF0000FFFFFFFF
(1784259821.572983) vecan0 19FFD5E1#51FF0000FFFFFFFF
(1784259821.668990) vecan0 19FFD7E1#410000007DF41DFF
(1784259821.669603) vecan0 19FFD7E1#510000FFFFF41DFF
(1784259821.670236) vecan0 19FFD5E1#41FF0000FFFFFFFF
(1784259821.670855) vecan0 19FFD5E1#51FF0000FFFFFFFF
(1784259821.771117) vecan0 19FFFDA5#0177FFFFFFFFFFFF
(1784259821.771740) vecan0 19FFFCA5#0177FFFFFFFFFFFF
(1784259821.772361) vecan0 19FFD7E1#410000007DF41DFF
(1784259821.772975) vecan0 19FFD7E1#510000FFFFF41DFF
(1784259821.773598) vecan0 19FFD5E1#41FF0000FFFFFFFF
(1784259821.774214) vecan0 19FFD5E1#51FF0000FFFFFFFF
(1784259821.871191) vecan0 19FFD7E1#410000007DF41DFF
(1784259821.871827) vecan0 19FFD7E1#510000FFFFF41DFF
(1784259821.872463) vecan0 19FFD5E1#41FF0000FFFFFFFF
(1784259821.873084) vecan0 19FFD5E1#51FF0000FFFFFFFF
(1784259821.915197) vecan0 01FFFDFA#F9140B01FFFFFFFF
(1784259821.969599) vecan0 19FFD7E1#410000007DF41DFF
(1784259821.970222) vecan0 19FFD7E1#510000FFFFF41DFF
(1784259821.970858) vecan0 19FFD5E1#41FF0000FFFFFFFF
(1784259821.971478) vecan0 19FFD5E1#51FF0000FFFFFFFF
(1784259821.972109) vecan0 19FFD4E1#0105FFFFFFFFFFFF
(1784259821.972731) vecan0 19FEA3E1#0101640A01007DFF
(1784259822.070934) vecan0 19FFD7E1#410000007DF41DFF
(1784259822.071548) vecan0 19FFD7E1#510000FFFFF41DFF
(1784259822.072182) vecan0 19FFD5E1#41FF0000FFFFFFFF
(1784259822.072797) vecan0 19FFD5E1#51FF0000FFFFFFFF
(1784259822.170318) vecan0 19FFD7E1#410000007DF41DFF
(1784259822.170936) vecan0 19FFD7E1#510000FFFFF41DFF
(1784259822.171568) vecan0 19FFD5E1#41FF0000FFFFFFFF
(1784259822.172181) vecan0 19FFD5E1#51FF0000FFFFFFFF
(1784259822.270940) vecan0 19FFFDA5#0177FFFFFFFFFFFF
(1784259822.271565) vecan0 19FFFCA5#0177FFFFFFFFFFFF
(1784259822.272193) vecan0 19FFD7E1#410000007DF41DFF
(1784259822.272819) vecan0 19FFD7E1#510000FFFFF41DFF
(1784259822.273450) vecan0 19FFD5E1#41FF0000FFFFFFFF
(1784259822.274061) vecan0 19FFD5E1#51FF0000FFFFFFFF
(1784259822.369982) vecan0 19FFD7E1#410000007DF41DFF
(1784259822.370598) vecan0 19FFD7E1#510000FFFFF41DFF
(1784259822.371239) vecan0 19FFD5E1#41FF0000FFFFFFFF
(1784259822.371857) vecan0 19FFD5E1#51FF0000FFFFFFFF
(1784259822.424133) vecan0 01FFFDFA#F9140B01FFFFFFFF
(1784259822.426559) vecan0 01FFB7FA#0349643D005400FF
(1784259822.435525) vecan0 01FF9CFA#FA6A26FFFFFFFFFF
(1784259822.437672) vecan0 01FF9CFA#F9FEFFFFFFFFFFFF
(1784259822.439894) vecan0 01FF9CFA#F8FEFFFFFFFFFFFF
(1784259822.445856) vecan0 00EEFF10#0000E0FF00803C80
(1784259822.454177) vecan0 01FFFFFA#1A07100517312C08
(1784259822.473928) vecan0 19FFD7E1#410000007DF41DFF
(1784259822.474552) vecan0 19FFD7E1#510000FFFFF41DFF
(1784259822.475176) vecan0 19FFD5E1#41FF0000FFFFFFFF
(1784259822.475785) vecan0 19FFD5E1#51FF0000FFFFFFFF
(1784259822.476409) vecan0 19FFD4E1#0105FFFFFFFFFFFF
(1784259822.477030) vecan0 19FEA3E1#0101640A01007DFF
(1784259822.573723) vecan0 19FFD7E1#410000007DF41DFF
(1784259822.574340) vecan0 19FFD7E1#510000FFFFF41DFF
(1784259822.574969) vecan0 19FFD5E1#41FF0000FFFFFFFF
(1784259822.575591) vecan0 19FFD5E1#51FF0000FFFFFFFF
(1784259822.671831) vecan0 19FFD7E1#410000007DF41DFF
(1784259822.672443) vecan0 19FFD7E1#510000FFFFF41DFF
(1784259822.673075) vecan0 19FFD5E1#41FF0000FFFFFFFF
(1784259822.673692) vecan0 19FFD5E1#51FF0000FFFFFFFF
(1784259822.773025) vecan0 19FFFDA5#0177FFFFFFFFFFFF
(1784259822.773647) vecan0 19FFFCA5#0177FFFFFFFFFFFF
(1784259822.774274) vecan0 19FFD7E1#410000007DF41DFF
(1784259822.774883) vecan0 19FFD7E1#510000FFFFF41DFF
(1784259822.775511) vecan0 19FFD5E1#41FF0000FFFFFFFF
(1784259822.776129) vecan0 19FFD5E1#51FF0000FFFFFFFF
(1784259822.871395) vecan0 19FFD7E1#410000007DF41DFF
(1784259822.872007) vecan0 19FFD7E1#510000FFFFF41DFF
(1784259822.872642) vecan0 19FFD5E1#41FF0000FFFFFFFF
(1784259822.873263) vecan0 19FFD5E1#51FF0000FFFFFFFF
(1784259822.942669) vecan0 01FFFDFA#F9140B01FFFFFFFF
(1784259822.971310) vecan0 19FFD7E1#410000007DF41DFF
(1784259822.971922) vecan0 19FFD7E1#510000FFFFF41DFF
(1784259822.972550) vecan0 19FFD5E1#41FF0000FFFFFFFF
(1784259822.973167) vecan0 19FFD5E1#51FF0000FFFFFFFF
(1784259822.973854) vecan0 19FFD4E1#0105FFFFFFFFFFFF
(1784259822.974456) vecan0 19FFCAE1#019108007D271EFF
(1784259822.975058) vecan0 19FFCAE1#114E08007D271EFF
(1784259822.975727) vecan0 19FFC9E1#01FFFFFFFFFFFF14
(1784259822.976340) vecan0 19FFC8E1#01FF0000FFFFFFFF
(1784259822.976955) vecan0 19FFC8E1#11FF0000FFFFFFFF
(1784259822.977568) vecan0 19FEA3E1#0101640A01007DFF
(1784259823.069529) vecan0 19FFD7E1#410000007D0B1EFF
(1784259823.070145) vecan0 19FFD7E1#510000FFFF0B1EFF
(1784259823.070774) vecan0 19FFD5E1#41FF0000FFFFFFFF
(1784259823.071391) vecan0 19FFD5E1#51FF0000FFFFFFFF
(1784259823.170013) vecan0 19FFD7E1#410000007D0B1EFF
(1784259823.170617) vecan0 19FFD7E1#510000FFFF0B1EFF
(1784259823.171245) vecan0 19FFD5E1#41FF0000FFFFFFFF
(1784259823.171856) vecan0 19FFD5E1#51FF0000FFFFFFFF
(1784259823.269460) vecan0 18FECAE2#0544FFFFFFFFFFFF
(1784259823.270076) vecan0 19FECAE2#0544FFFFFFFFFFFF
(1784259823.270685) vecan0 18FECAA5#0545FFFFFFFFFFFF
(1784259823.271297) vecan0 19FECAA5#0545FFFFFFFFFFFF
(1784259823.271921) vecan0 19FFFDA5#0177FFFFFFFFFFFF
(1784259823.272686) vecan0 19FFFCA5#0177FFFFFFFFFFFF
(1784259823.273296) vecan0 19FFD7E1#410000007D0B1EFF
(1784259823.273926) vecan0 19FFD7E1#510000FFFF0B1EFF
(1784259823.274582) vecan0 19FFD5E1#41FF0000FFFFFFFF
(1784259823.275186) vecan0 19FFD5E1#51FF0000FFFFFFFF
(1784259823.369466) vecan0 19FFD7E1#410000007D0B1EFF
(1784259823.370066) vecan0 19FFD7E1#510000FFFF0B1EFF
(1784259823.370695) vecan0 19FFD5E1#41FF0000FFFFFFFF
(1784259823.371305) vecan0 19FFD5E1#51FF0000FFFFFFFF
(1784259823.422421) vecan0 01FFFDFA#F9140B01FFFFFFFF
(1784259823.425460) vecan0 01FFC7FA#010C01007DFF06FF
(1784259823.431759) vecan0 01FFDCFA#00E7260100FFFFFF
(1784259823.434164) vecan0 01FFB7FA#00000A00006801FF
(1784259823.435996) vecan0 01FFB7FA#01000A0000BD00FF
(1784259823.438014) vecan0 01FFB7FA#02000A00007B01FF
(1784259823.440383) vecan0 00FECAFA#4548010004FF
(1784259823.442740) vecan0 01FFB7FA#0348643C005400FF
(1784259823.448730) vecan0 01FFB7FA#0348643C005400FF
(1784259823.451741) vecan0 01FF9CFA#FA6A26FFFFFFFFFF
(1784259823.453853) vecan0 01FF9CFA#F9FEFFFFFFFFFFFF
(1784259823.456220) vecan0 01FF9CFA#F8FEFFFFFFFFFFFF
(1784259823.458103) vecan0 00FECAFA#0558FFFFFFFF
(1784259823.460613) vecan0 00FECAFA#0558FFFFFFFF
(1784259823.462758) vecan0 00FECAFA#0558FFFFFFFF
(1784259823.465171) vecan0 00FECAFA#0558FFFFFFFF
(1784259823.467391) vecan0 00EEFF10#0000E0FF00803C80
(1784259823.469514) vecan0 01FFFFFA#1A07100517312D08
(1784259823.470075) vecan0 18FECAE1#1442000012FFFFFF
(1784259823.470677) vecan0 19FECAE1#1442000012FFFFFF
(1784259823.471313) vecan0 19FFD7E1#410000007D0B1EFF
(1784259823.471914) vecan0 19FFD7E1#510000FFFF0B1EFF
(1784259823.472502) vecan0 01FF80FA#00000000002D05FF
(1784259823.473090) vecan0 19FFD5E1#41FF0000FFFFFFFF
(1784259823.473699) vecan0 19FFD5E1#51FF0000FFFFFFFF
(1784259823.474326) vecan0 19FFD4E1#0105FFFFFFFFFFFF
(1784259823.474899) vecan0 01FFC7FA#010C01007DFF06FF
(1784259823.475466) vecan0 19FFC7E1#010E016086C801FF
(1784259823.476088) vecan0 19FEA3E1#0101640A01007DFF
(1784259823.476714) vecan0 18FECAA4#0545FFFFFFFFFFFF
(1784259823.477281) vecan0 01FFD4FA#00FFFFFFFFFFFFFF
(1784259823.477864) vecan0 19FECAA4#0545FFFFFFFFFFFF
(1784259823.480077) vecan0 01FFD4FA#00FFFFFFFFFFFFFF
(1784259823.482315) vecan0 01FFB3FA#FDFFFFFFFFFFFFFF
(1784259823.484522) vecan0 01FFB1FA#30FFFFFFFFFFFFFF
(1784259823.486715) vecan0 00FECAFA#0080FFFFFFFF
(1784259823.518773) vecan0 18FECAA0#0545FFFFFFFFFFFF
(1784259823.519392) vecan0 19FECAA0#0545FFFFFFFFFFFF
(1784259823.569448) vecan0 19FFD7E1#410000007D0B1EFF
(1784259823.570056) vecan0 19FFD7E1#510000FFFF0B1EFF
(1784259823.570695) vecan0 19FFD5E1#41FF0000FFFFFFFF
(1784259823.571308) vecan0 19FFD5E1#51FF0000FFFFFFFF
(1784259823.669490) vecan0 19FFD7E1#410000007D0B1EFF
(1784259823.670096) vecan0 19FFD7E1#510000FFFF0B1EFF
(1784259823.670726) vecan0 19FFD5E1#41FF0000FFFFFFFF
(1784259823.671344) vecan0 19FFD5E1#51FF0000FFFFFFFF
(1784259823.769317) vecan0 19FFFDA5#0177FFFFFFFFFFFF
(1784259823.769939) vecan0 19FFFCA5#0177FFFFFFFFFFFF
(1784259823.770551) vecan0 19FFD7E1#410000007D0B1EFF
(1784259823.771158) vecan0 19FFD7E1#510000FFFF0B1EFF
(1784259823.771917) vecan0 19FFD5E1#41FF0000FFFFFFFF
(1784259823.772537) vecan0 19FFD5E1#51FF0000FFFFFFFF
(1784259823.869689) vecan0 19FFD7E1#410000007DF41DFF
(1784259823.870322) vecan0 19FFD7E1#510000FFFFF41DFF
(1784259823.870948) vecan0 19FFD5E1#41FF0000FFFFFFFF
(1784259823.871564) vecan0 19FFD5E1#51FF0000FFFFFFFF
(1784259823.918186) vecan0 18FECAA2#0545FFFFFFFFFFFF
(1784259823.918800) vecan0 19FECAA2#0545FFFFFFFFFFFF
(1784259823.943769) vecan0 01FFFDFA#F9140A01FFFFFFFF
(1784259823.970186) vecan0 19FFD7E1#410000007DF41DFF
(1784259823.970803) vecan0 19FFD7E1#510000FFFFF41DFF
(1784259823.971432) vecan0 19FFD5E1#41FF0000FFFFFFFF
(1784259823.972074) vecan0 19FFD5E1#51FF0000FFFFFFFF
(1784259823.972703) vecan0 19FFD4E1#0105FFFFFFFFFFFF
(1784259823.973328) vecan0 19FEA3E1#0101640A01007DFF
(1784259824.070631) vecan0 19FFD7E1#410000007DF41DFF
(1784259824.071253) vecan0 19FFD7E1#510000FFFFF41DFF
(1784259824.071885) vecan0 19FFD5E1#41FF0000FFFFFFFF
(1784259824.072493) vecan0 19FFD5E1#51FF0000FFFFFFFF
(1784259824.170050) vecan0 19FFD7E1#410000007DF41DFF
(1784259824.170669) vecan0 19FFD7E1#510000FFFFF41DFF
(1784259824.171300) vecan0 19FFD5E1#41FF0000FFFFFFFF
(1784259824.171916) vecan0 19FFD5E1#51FF0000FFFFFFFF
(1784259824.268692) vecan0 19FFFDA5#0177FFFFFFFFFFFF
(1784259824.269316) vecan0 19FFFCA5#0177FFFFFFFFFFFF
(1784259824.269946) vecan0 19FFD7E1#410000007DF41DFF
(1784259824.270569) vecan0 19FFD7E1#510000FFFFF41DFF
(1784259824.271201) vecan0 19FFD5E1#41FF0000FFFFFFFF
(1784259824.271817) vecan0 19FFD5E1#51FF0000FFFFFFFF
(1784259824.369285) vecan0 19FFD7E1#410000007DF41DFF
(1784259824.369897) vecan0 19FFD7E1#510000FFFFF41DFF
(1784259824.370584) vecan0 19FFD5E1#41FF0000FFFFFFFF
(1784259824.371196) vecan0 19FFD5E1#51FF0000FFFFFFFF
(1784259824.419323) vecan0 01FFFDFA#F9140B01FFFFFFFF
(1784259824.421824) vecan0 01FFC7FA#010B01007DFF06FF
(1784259824.427828) vecan0 01FFB7FA#0349643D005400FF
(1784259824.430427) vecan0 01FF9CFA#FA6C26FFFFFFFFFF
(1784259824.432386) vecan0 01FF9CFA#F9FEFFFFFFFFFFFF
(1784259824.434225) vecan0 01FF9CFA#F8FEFFFFFFFFFFFF
(1784259824.438649) vecan0 00EEFF10#0000E0FF00803C80
(1784259824.446956) vecan0 01FFFFFA#1A07100517312E08
(1784259824.469916) vecan0 19FFD7E1#410000007D0B1EFF
(1784259824.470520) vecan0 19FFD7E1#510000FFFF0B1EFF
(1784259824.471145) vecan0 19FFD5E1#41FF0000FFFFFFFF
(1784259824.471749) vecan0 19FFD5E1#51FF0000FFFFFFFF
(1784259824.472357) vecan0 19FFD4E1#0105FFFFFFFFFFFF
(1784259824.472964) vecan0 19FEA3E1#0101640A01007DFF
(1784259824.576160) vecan0 19FFD7E1#410000007D0B1EFF
(1784259824.576769) vecan0 19FFD7E1#510000FFFF0B1EFF
(1784259824.577394) vecan0 19FFD5E1#41FF0000FFFFFFFF
(1784259824.578021) vecan0 19FFD5E1#51FF0000FFFFFFFF
(1784259824.669461) vecan0 19FFD7E1#410000007D0B1EFF
(1784259824.670089) vecan0 19FFD7E1#510000FFFF0B1EFF
(1784259824.670726) vecan0 19FFD5E1#41FF0000FFFFFFFF
(1784259824.671350) vecan0 19FFD5E1#51FF0000FFFFFFFF
(1784259824.718499) vecan0 18EA9BE2#00EE00
(1784259824.720107) vecan0 00EEFF9B#2020000E00000080
(1784259824.771174) vecan0 19FFFDA5#0177FFFFFFFFFFFF
(1784259824.771803) vecan0 19FFFCA5#0177FFFFFFFFFFFF
(1784259824.772430) vecan0 19FFD7E1#410000007D0B1EFF
(1784259824.773086) vecan0 19FFD7E1#510000FFFF0B1EFF
(1784259824.773725) vecan0 19FFD5E1#41FF0000FFFFFFFF
(1784259824.774341) vecan0 19FFD5E1#51FF0000FFFFFFFF
(1784259824.839883) vecan0 00EFFA9B#F4FFFFFFFFFFFFFF
(1784259824.843777) vecan0 00EF9BFA#F050105154000001
(1784259824.869817) vecan0 19FFD7E1#410000007D0B1EFF
(1784259824.870425) vecan0 19FFD7E1#510000FFFF0B1EFF
(1784259824.871059) vecan0 19FFD5E1#41FF0000FFFFFFFF
(1784259824.871676) vecan0 19FFD5E1#51FF0000FFFFFFFF
(1784259824.939101) vecan0 01FFFDFA#F9140B01FFFFFFFF
(1784259824.970409) vecan0 19FFD7E1#410000007D0B1EFF
(1784259824.971011) vecan0 19FFD7E1#510000FFFF0B1EFF
(1784259824.971640) vecan0 19FFD5E1#41FF0000FFFFFFFF
(1784259824.972244) vecan0 19FFD5E1#51FF0000FFFFFFFF
(1784259824.972851) vecan0 19FFD4E1#0105FFFFFFFFFFFF
(1784259824.973451) vecan0 19FEA3E1#0101640A01007DFF
(1784259825.069277) vecan0 19FFD7E1#410000007D0B1EFF
(1784259825.069884) vecan0 19FFD7E1#510000FFFF0B1EFF
(1784259825.070513) vecan0 19FFD5E1#41FF0000FFFFFFFF
(1784259825.071118) vecan0 19FFD5E1#51FF0000FFFFFFFF
(1784259825.170678) vecan0 19FFD7E1#410000007D0B1EFF
(1784259825.171404) vecan0 19FFD7E1#510000FFFF0B1EFF
(1784259825.172037) vecan0 19FFD5E1#41FF0000FFFFFFFF
(1784259825.172654) vecan0 19FFD5E1#51FF0000FFFFFFFF
(1784259825.269294) vecan0 19FFFDA5#0177FFFFFFFFFFFF
(1784259825.269924) vecan0 19FFFCA5#0177FFFFFFFFFFFF
(1784259825.270544) vecan0 19FFD7E1#410000007D0B1EFF
(1784259825.271166) vecan0 19FFD7E1#510000FFFF0B1EFF
(1784259825.271809) vecan0 19FFD5E1#41FF0000FFFFFFFF
(1784259825.272425) vecan0 19FFD5E1#51FF0000FFFFFFFF
(1784259825.370258) vecan0 19FFD7E1#410000007D0B1EFF
(1784259825.370856) vecan0 19FFD7E1#510000FFFF0B1EFF
(1784259825.371496) vecan0 19FFD5E1#41FF0000FFFFFFFF
(1784259825.372113) vecan0 19FFD5E1#51FF0000FFFFFFFF
(1784259825.413617) vecan0 01FFFDFA#F9140B01FFFFFFFF
(1784259825.432493) vecan0 00EEFF10#0000E0FF00803C80
(1784259825.441003) vecan0 01FFFFFA#1A07100517312F08
(1784259825.468604) vecan0 19FFD7E1#410000007D0B1EFF
(1784259825.469212) vecan0 19FFD7E1#510000FFFF0B1EFF
(1784259825.469840) vecan0 19FFD5E1#41FF0000FFFFFFFF
(1784259825.470447) vecan0 19FFD5E1#51FF0000FFFFFFFF
(1784259825.471062) vecan0 19FFD4E1#0105FFFFFFFFFFFF
(1784259825.471674) vecan0 19FEA3E1#0101640A01007DFF
(1784259825.574220) vecan0 19FFD7E1#410000007D0B1EFF
(1784259825.574830) vecan0 19FFD7E1#510000FFFF0B1EFF
(1784259825.575463) vecan0 19FFD5E1#41FF0000FFFFFFFF
(1784259825.576077) vecan0 19FFD5E1#51FF0000FFFFFFFF
(1784259825.669605) vecan0 19FFD7E1#410000007D0B1EFF
(1784259825.670289) vecan0 19FFD7E1#510000FFFF0B1EFF
(1784259825.670923) vecan0 19FFD5E1#41FF0000FFFFFFFF
(1784259825.671544) vecan0 19FFD5E1#51FF0000FFFFFFFF
(1784259825.768732) vecan0 19FFFDA5#0177FFFFFFFFFFFF
(1784259825.769445) vecan0 19FFFCA5#0177FFFFFFFFFFFF
(1784259825.770068) vecan0 18FECAA3#0545FFFFFFFFFFFF
(1784259825.770688) vecan0 19FECAA3#0545FFFFFFFFFFFF
(1784259825.771302) vecan0 19FFD7E1#410000007D0B1EFF
(1784259825.771922) vecan0 19FFD7E1#510000FFFF0B1EFF
(1784259825.772561) vecan0 19FFD5E1#41FF0000FFFFFFFF
(1784259825.773183) vecan0 19FFD5E1#51FF0000FFFFFFFF
(1784259825.868625) vecan0 19FFD7E1#410000007D0B1EFF
(1784259825.869233) vecan0 19FFD7E1#510000FFFF0B1EFF
(1784259825.869999) vecan0 19FFD5E1#41FF0000FFFFFFFF
(1784259825.870611) vecan0 19FFD5E1#51FF0000FFFFFFFF
(1784259825.930571) vecan0 01FFFDFA#F9140B01FFFFFFFF
(1784259825.968964) vecan0 19FFD7E1#410000007D0B1EFF
(1784259825.969562) vecan0 19FFD7E1#510000FFFF0B1EFF
(1784259825.970248) vecan0 19FFD5E1#41FF0000FFFFFFFF
(1784259825.970977) vecan0 19FFD5E1#51FF0000FFFFFFFF
(1784259825.971604) vecan0 19FFD4E1#0105FFFFFFFFFFFF
(1784259825.972218) vecan0 19FEA3E1#0101640A01007DFF
(1784259826.069424) vecan0 19FFD7E1#410000007D0B1EFF
(1784259826.070031) vecan0 19FFD7E1#510000FFFF0B1EFF
(1784259826.070647) vecan0 19FFD5E1#41FF0000FFFFFFFF
(1784259826.071256) vecan0 19FFD5E1#51FF0000FFFFFFFF
(1784259826.169411) vecan0 19FFD7E1#410000007D0B1EFF
(1784259826.170019) vecan0 19FFD7E1#510000FFFF0B1EFF
(1784259826.170652) vecan0 19FFD5E1#41FF0000FFFFFFFF
(1784259826.171269) vecan0 19FFD5E1#51FF0000FFFFFFFF
(1784259826.232753) vecan0 00EAFF9B#CAFE00FFFFFFFFFF
(1784259826.233783) vecan0 18FECAE2#0544FFFFFFFFFFFF
(1784259826.234389) vecan0 18FECAA5#0545FFFFFFFFFFFF
(1784259826.235011) vecan0 18FECAA3#0545FFFFFFFFFFFF
(1784259826.235616) vecan0 18FECAA2#0545FFFFFFFFFFFF
(1784259826.236233) vecan0 18FECAA0#0545FFFFFFFFFFFF
(1784259826.236844) vecan0 18FECAE1#1442000012FFFFFF
(1784259826.237345) vecan0 00FECAFA#0545FFFFFFFF
(1784259826.237976) vecan0 18FECAA4#0545FFFFFFFFFFFF
(1784259826.238618) vecan0 18E89B64#01FFFFFFFFCAFE00
(1784259826.240165) vecan0 00FECAFA#0040FFFFFFFF
(1784259826.242512) vecan0 00FECAFA#4548010004FF
(1784259826.244243) vecan0 00FECAFA#0549FFFFFFFF
(1784259826.246809) vecan0 00FECAFA#0558FFFFFFFF
(1784259826.248868) vecan0 00FECAFA#0558FFFFFFFF
(1784259826.251488) vecan0 00FECAFA#0558FFFFFFFF
(1784259826.253547) vecan0 00FECAFA#0558FFFFFFFF
(1784259826.258371) vecan0 00FECAFA#05FAFFFFFFFF
(1784259826.260481) vecan0 00FECAFA#0541FFFFFFFF
(1784259826.268558) vecan0 19FFFDA5#0177FFFFFFFFFFFF
(1784259826.269178) vecan0 19FFFCA5#0177FFFFFFFFFFFF
(1784259826.269792) vecan0 19FFD7E1#410000007D0B1EFF
(1784259826.270406) vecan0 19FFD7E1#510000FFFF0B1EFF
(1784259826.271037) vecan0 19FFD5E1#41FF0000FFFFFFFF
(1784259826.271653) vecan0 19FFD5E1#51FF0000FFFFFFFF
(1784259826.272161) vecan0 00FECAFA#0080FFFFFFFF
(1784259826.372123) vecan0 19FFD7E1#410000007D0B1EFF
(1784259826.372728) vecan0 19FFD7E1#510000FFFF0B1EFF
(1784259826.373357) vecan0 19FFD5E1#41FF0000FFFFFFFF
(1784259826.373973) vecan0 19FFD5E1#51FF0000FFFFFFFF
(1784259826.425526) vecan0 00EEFF10#0000E0FF00803C80
(1784259826.430951) vecan0 01FFFFFA#1A07100517313008
(1784259826.445590) vecan0 01FFFDFA#F9140B01FFFFFFFF
(1784259826.447998) vecan0 01FFB7FA#0348643C005400FF
(1784259826.454214) vecan0 01FF9CFA#FA6E26FFFFFFFFFF
(1784259826.456702) vecan0 01FF9CFA#F9FEFFFFFFFFFFFF
(1784259826.458778) vecan0 01FF9CFA#F8FEFFFFFFFFFFFF
(1784259826.469488) vecan0 19FFD7E1#410000007D0B1EFF
(1784259826.470083) vecan0 19FFD7E1#510000FFFF0B1EFF
(1784259826.470710) vecan0 19FFD5E1#41FF0000FFFFFFFF
(1784259826.471328) vecan0 19FFD5E1#51FF0000FFFFFFFF
(1784259826.471957) vecan0 19FFD4E1#0105FFFFFFFFFFFF
(1784259826.472578) vecan0 19FEA3E1#0101640A01007DFF
(1784259826.569751) vecan0 19FFD7E1#410000007D0B1EFF
(1784259826.570361) vecan0 19FFD7E1#510000FFFF0B1EFF
(1784259826.570989) vecan0 19FFD5E1#41FF0000FFFFFFFF
(1784259826.571603) vecan0 19FFD5E1#51FF0000FFFFFFFF
(1784259826.668858) vecan0 19FFD7E1#410000007DF41DFF
(1784259826.669479) vecan0 19FFD7E1#510000FFFFF41DFF
(1784259826.670116) vecan0 19FFD5E1#41FF0000FFFFFFFF
(1784259826.670724) vecan0 19FFD5E1#51FF0000FFFFFFFF
(1784259826.768899) vecan0 19FFFDA5#0177FFFFFFFFFFFF
(1784259826.769520) vecan0 19FFFCA5#0177FFFFFFFFFFFF
(1784259826.770146) vecan0 19FFD7E1#410000007DF41DFF
(1784259826.770770) vecan0 19FFD7E1#510000FFFFF41DFF
(1784259826.771403) vecan0 19FFD5E1#41FF0000FFFFFFFF
(1784259826.772019) vecan0 19FFD5E1#51FF0000FFFFFFFF
(1784259826.869775) vecan0 19FFD7E1#410000007DF41DFF
(1784259826.870390) vecan0 19FFD7E1#510000FFFFF41DFF
(1784259826.871017) vecan0 19FFD5E1#41FF0000FFFFFFFF
(1784259826.871638) vecan0 19FFD5E1#51FF0000FFFFFFFF
(1784259826.924461) vecan0 01FFFDFA#F9140B01FFFFFFFF
(1784259826.969104) vecan0 19FFD7E1#410000007DF41DFF
(1784259826.969719) vecan0 19FFD7E1#510000FFFFF41DFF
(1784259826.970348) vecan0 19FFD5E1#41FF0000FFFFFFFF
(1784259826.970968) vecan0 19FFD5E1#51FF0000FFFFFFFF
(1784259826.971597) vecan0 19FFD4E1#0105FFFFFFFFFFFF
(1784259826.972212) vecan0 19FEA3E1#0101640A01007DFF
(1784259827.068885) vecan0 19FFD7E1#410000007DF41DFF
(1784259827.069497) vecan0 19FFD7E1#510000FFFFF41DFF
(1784259827.070131) vecan0 19FFD5E1#41FF0000FFFFFFFF
(1784259827.070750) vecan0 19FFD5E1#51FF0000FFFFFFFF
(1784259827.170584) vecan0 19FFD7E1#410000007DF41DFF
(1784259827.171200) vecan0 19FFD7E1#510000FFFFF41DFF
(1784259827.171832) vecan0 19FFD5E1#41FF0000FFFFFFFF
(1784259827.172453) vecan0 19FFD5E1#51FF0000FFFFFFFF
(1784259827.269728) vecan0 19FFFDA5#0177FFFFFFFFFFFF
(1784259827.270355) vecan0 19FFFCA5#0177FFFFFFFFFFFF
(1784259827.270989) vecan0 19FFD7E1#410000007DF41DFF
(1784259827.271617) vecan0 19FFD7E1#510000FFFFF41DFF
(1784259827.272254) vecan0 19FFD5E1#41FF0000FFFFFFFF
(1784259827.272877) vecan0 19FFD5E1#51FF0000FFFFFFFF
(1784259827.369624) vecan0 19FFD7E1#410000007DF41DFF
(1784259827.370240) vecan0 19FFD7E1#510000FFFFF41DFF
(1784259827.370871) vecan0 19FFD5E1#41FF0000FFFFFFFF
(1784259827.371489) vecan0 19FFD5E1#51FF0000FFFFFFFF
(1784259827.421828) vecan0 01FFFFFA#1A07100517313108
(1784259827.437197) vecan0 01FFFDFA#F9140B01FFFFFFFF
(1784259827.455489) vecan0 00EEFF10#0000E0FF00803C80
(1784259827.469325) vecan0 19FFD7E1#410000007DF41DFF
(1784259827.469936) vecan0 19FFD7E1#510000FFFFF41DFF
(1784259827.470573) vecan0 19FFD5E1#41FF0000FFFFFFFF
(1784259827.471188) vecan0 19FFD5E1#51FF0000FFFFFFFF
(1784259827.471816) vecan0 19FFD4E1#0105FFFFFFFFFFFF
(1784259827.472431) vecan0 19FEA3E1#0101640A01007DFF
(1784259827.562476) vecan0 19FFD7E1#410000007DF41DFF
(1784259827.563096) vecan0 19FFD7E1#510000FFFFF41DFF
(1784259827.563724) vecan0 19FFD5E1#41FF0000FFFFFFFF
(1784259827.564339) vecan0 19FFD5E1#51FF0000FFFFFFFF
(1784259827.665019) vecan0 19FFD7E1#410000007DF41DFF
(1784259827.665648) vecan0 19FFD7E1#510000FFFFF41DFF
(1784259827.666277) vecan0 19FFD5E1#41FF0000FFFFFFFF
(1784259827.666901) vecan0 19FFD5E1#51FF0000FFFFFFFF
(1784259827.763031) vecan0 19FFFDA5#0177FFFFFFFFFFFF
(1784259827.763651) vecan0 19FFFCA5#0177FFFFFFFFFFFF
(1784259827.764272) vecan0 19FFD7E1#410000007DF41DFF
(1784259827.764887) vecan0 19FFD7E1#510000FFFFF41DFF
(1784259827.765523) vecan0 19FFD5E1#41FF0000FFFFFFFF
(1784259827.766132) vecan0 19FFD5E1#51FF0000FFFFFFFF
(1784259827.867561) vecan0 19FFD7E1#410000007DF41DFF
(1784259827.868170) vecan0 19FFD7E1#510000FFFFF41DFF
(1784259827.868801) vecan0 19FFD5E1#41FF0000FFFFFFFF
(1784259827.869420) vecan0 19FFD5E1#51FF0000FFFFFFFF
(1784259827.917780) vecan0 01FFFDFA#F9140B01FFFFFFFF
(1784259827.963041) vecan0 19FFD7E1#410000007DF41DFF
(1784259827.963652) vecan0 19FFD7E1#510000FFFFF41DFF
(1784259827.964275) vecan0 19FFD5E1#41FF0000FFFFFFFF
(1784259827.964877) vecan0 19FFD5E1#51FF0000FFFFFFFF
(1784259827.965509) vecan0 19FFD4E1#0105FFFFFFFFFFFF
(1784259827.966117) vecan0 19FFCAE1#018608007D271EFF
(1784259827.966722) vecan0 19FFCAE1#114E08007D271EFF
(1784259827.967348) vecan0 19FFC9E1#01FFFFFFFFFFFF14
(1784259827.967969) vecan0 19FFC8E1#01FF0000FFFFFFFF
(1784259827.968571) vecan0 19FFC8E1#11FF0000FFFFFFFF
(1784259827.969181) vecan0 19FEA3E1#0101640A01007DFF
(1784259828.059054) vecan0 19FFD7E1#410000007DF41DFF
(1784259828.059665) vecan0 19FFD7E1#510000FFFFF41DFF
(1784259828.060298) vecan0 19FFD5E1#41FF0000FFFFFFFF
(1784259828.060913) vecan0 19FFD5E1#51FF0000FFFFFFFF
(1784259828.168128) vecan0 19FFD7E1#410000007DF41DFF
(1784259828.168751) vecan0 19FFD7E1#510000FFFFF41DFF
(1784259828.169385) vecan0 19FFD5E1#41FF0000FFFFFFFF
(1784259828.170000) vecan0 19FFD5E1#51FF0000FFFFFFFF
(1784259828.268146) vecan0 18FECAE2#0544FFFFFFFFFFFF
(1784259828.268757) vecan0 19FECAE2#0544FFFFFFFFFFFF
(1784259828.269387) vecan0 18FECAA5#0545FFFFFFFFFFFF
(1784259828.269997) vecan0 19FECAA5#0545FFFFFFFFFFFF
(1784259828.270632) vecan0 19FFFDA5#0177FFFFFFFFFFFF
(1784259828.271255) vecan0 19FFFCA5#0177FFFFFFFFFFFF
(1784259828.271979) vecan0 19FFD7E1#410000007DF41DFF
(1784259828.272596) vecan0 19FFD7E1#510000FFFFF41DFF
(1784259828.273222) vecan0 19FFD5E1#41FF0000FFFFFFFF
(1784259828.273834) vecan0 19FFD5E1#51FF0000FFFFFFFF
(1784259828.361330) vecan0 19FFD7E1#410000007DF41DFF
(1784259828.361939) vecan0 19FFD7E1#510000FFFFF41DFF
(1784259828.362600) vecan0 19FFD5E1#41FF0000FFFFFFFF
(1784259828.363212) vecan0 19FFD5E1#51FF0000FFFFFFFF
(1784259828.425721) vecan0 01FFB3FA#FDFFFFFFFFFFFFFF
(1784259828.428545) vecan0 01FFB1FA#30FFFFFFFFFFFFFF
(1784259828.431426) vecan0 00FECAFA#0080FFFFFFFF
(1784259828.441217) vecan0 01FFFDFA#F9140B01FFFFFFFF
(1784259828.443192) vecan0 01FFDCFA#00E7260100FFFFFF
(1784259828.444903) vecan0 01FFB7FA#00000A00006801FF
(1784259828.447645) vecan0 01FFB7FA#01000A0000BD00FF
(1784259828.449753) vecan0 01FFB7FA#02000A00007B01FF
(1784259828.452102) vecan0 00FECAFA#4548010004FF
(1784259828.454852) vecan0 01FFB7FA#0349643D005400FF
(1784259828.460853) vecan0 01FFB7FA#0349643D005400FF
(1784259828.463034) vecan0 18FECAE1#1442000012FFFFFF
(1784259828.463635) vecan0 19FECAE1#1442000012FFFFFF
(1784259828.464207) vecan0 01FF9CFA#FA6C26FFFFFFFFFF
(1784259828.464810) vecan0 19FFD7E1#410000007DF41DFF
(1784259828.465430) vecan0 19FFD7E1#510000FFFFF41DFF
(1784259828.466057) vecan0 19FFD5E1#41FF0000FFFFFFFF
(1784259828.466641) vecan0 01FF9CFA#F9FEFFFFFFFFFFFF
(1784259828.467208) vecan0 19FFD5E1#51FF0000FFFFFFFF
(1784259828.467833) vecan0 19FFD4E1#0105FFFFFFFFFFFF
(1784259828.468454) vecan0 19FFC7E1#010E016086C801FF
(1784259828.469064) vecan0 01FF9CFA#F8FEFFFFFFFFFFFF
(1784259828.469638) vecan0 19FEA3E1#0101640A01007DFF
(1784259828.470262) vecan0 18FECAA4#0545FFFFFFFFFFFF
(1784259828.470891) vecan0 19FECAA4#0545FFFFFFFFFFFF
(1784259828.471708) vecan0 01FF9CFA#FA6C26FFFFFFFFFF
(1784259828.474154) vecan0 01FF9CFA#F9FEFFFFFFFFFFFF
(1784259828.476474) vecan0 01FF9CFA#F8FEFFFFFFFFFFFF
(1784259828.478794) vecan0 00FECAFA#0558FFFFFFFF
(1784259828.480755) vecan0 00FECAFA#0558FFFFFFFF
(1784259828.483151) vecan0 00FECAFA#0558FFFFFFFF
(1784259828.485121) vecan0 00FECAFA#0558FFFFFFFF
(1784259828.487595) vecan0 00EEFF10#0000E0FF00803C80
(1784259828.489642) vecan0 01FFFFFA#1A07100517313208
(1784259828.491916) vecan0 01FF80FA#00000000002D05FF
(1784259828.494045) vecan0 01FFC7FA#010B01007DFF06FF
(1784259828.496241) vecan0 01FFD4FA#00FFFFFFFFFFFFFF
(1784259828.498496) vecan0 01FFD4FA#00FFFFFFFFFFFFFF
(1784259828.514525) vecan0 18FECAA0#0545FFFFFFFFFFFF
(1784259828.515138) vecan0 19FECAA0#0545FFFFFFFFFFFF
(1784259828.565565) vecan0 19FFD7E1#410000007D0B1EFF
(1784259828.566179) vecan0 19FFD7E1#510000FFFF0B1EFF
(1784259828.566817) vecan0 19FFD5E1#41FF0000FFFFFFFF
(1784259828.567431) vecan0 19FFD5E1#51FF0000FFFFFFFF
(1784259828.666495) vecan0 19FFD7E1#410000007D0B1EFF
(1784259828.667107) vecan0 19FFD7E1#510000FFFF0B1EFF
(1784259828.667833) vecan0 19FFD5E1#41FF0000FFFFFFFF
(1784259828.668455) vecan0 19FFD5E1#51FF0000FFFFFFFF
(1784259828.761373) vecan0 19FFFDA5#0177FFFFFFFFFFFF
(1784259828.762059) vecan0 19FFFCA5#0177FFFFFFFFFFFF
(1784259828.762665) vecan0 19FFD7E1#410000007D0B1EFF
(1784259828.763268) vecan0 19FFD7E1#510000FFFF0B1EFF
(1784259828.763898) vecan0 19FFD5E1#41FF0000FFFFFFFF
(1784259828.764521) vecan0 19FFD5E1#51FF0000FFFFFFFF
(1784259828.866060) vecan0 19FFD7E1#410000007D0B1EFF
(1784259828.866711) vecan0 19FFD7E1#510000FFFF0B1EFF
(1784259828.867421) vecan0 19FFD5E1#41FF0000FFFFFFFF
(1784259828.868034) vecan0 19FFD5E1#51FF0000FFFFFFFF
(1784259828.920724) vecan0 18FECAA2#0545FFFFFFFFFFFF
(1784259828.921298) vecan0 01FFFDFA#F9140B01FFFFFFFF
(1784259828.921877) vecan0 19FECAA2#0545FFFFFFFFFFFF
(1784259828.967314) vecan0 19FFD7E1#410000007D0B1EFF
(1784259828.967942) vecan0 19FFD7E1#510000FFFF0B1EFF
(1784259828.968571) vecan0 19FFD5E1#41FF0000FFFFFFFF
(1784259828.969204) vecan0 19FFD5E1#51FF0000FFFFFFFF
(1784259828.969828) vecan0 19FFD4E1#0105FFFFFFFFFFFF
(1784259828.970442) vecan0 19FEA3E1#0101640A01007DFF
(1784259829.063687) vecan0 19FFD7E1#410000007D0B1EFF
(1784259829.064311) vecan0 19FFD7E1#510000FFFF0B1EFF
(1784259829.064970) vecan0 19FFD5E1#41FF0000FFFFFFFF
(1784259829.065582) vecan0 19FFD5E1#51FF0000FFFFFFFF
(1784259829.168433) vecan0 19FFD7E1#410000007D0B1EFF
(1784259829.169039) vecan0 19FFD7E1#510000FFFF0B1EFF
(1784259829.169673) vecan0 19FFD5E1#41FF0000FFFFFFFF
(1784259829.170294) vecan0 19FFD5E1#51FF0000FFFFFFFF
(1784259829.263296) vecan0 19FFFDA5#0177FFFFFFFFFFFF
(1784259829.263929) vecan0 19FFFCA5#0177FFFFFFFFFFFF
(1784259829.264553) vecan0 19FFD7E1#410000007DF41DFF
(1784259829.265170) vecan0 19FFD7E1#510000FFFFF41DFF
(1784259829.265798) vecan0 19FFD5E1#41FF0000FFFFFFFF
(1784259829.266411) vecan0 19FFD5E1#51FF0000FFFFFFFF
(1784259829.364435) vecan0 19FFD7E1#410000007DF41DFF
(1784259829.365052) vecan0 19FFD7E1#510000FFFFF41DFF
(1784259829.365691) vecan0 19FFD5E1#41FF0000FFFFFFFF
(1784259829.366307) vecan0 19FFD5E1#51FF0000FFFFFFFF
(1784259829.430116) vecan0 01FFFDFA#F9140B01FFFFFFFF
(1784259829.432590) vecan0 01FFB7FA#0348643C005400FF
(1784259829.448944) vecan0 00EEFF10#0000E0FF00803C80
(1784259829.457093) vecan0 01FFFFFA#1A07100517313308
(1784259829.465157) vecan0 19FFD7E1#410000007DF41DFF
(1784259829.465782) vecan0 19FFD7E1#510000FFFFF41DFF
(1784259829.466420) vecan0 19FFD5E1#41FF0000FFFFFFFF
(1784259829.467039) vecan0 19FFD5E1#51FF0000FFFFFFFF
(1784259829.467666) vecan0 19FFD4E1#0105FFFFFFFFFFFF
(1784259829.468285) vecan0 19FEA3E1#0101640A01007DFF
(1784259829.567856) vecan0 19FFD7E1#410000007DF41DFF
(1784259829.568470) vecan0 19FFD7E1#510000FFFFF41DFF
(1784259829.569108) vecan0 19FFD5E1#41FF0000FFFFFFFF
(1784259829.569747) vecan0 19FFD5E1#51FF0000FFFFFFFF
(1784259829.664725) vecan0 19FFD7E1#410000007DF41DFF
(1784259829.665687) vecan0 19FFD7E1#510000FFFFF41DFF
(1784259829.666317) vecan0 19FFD5E1#41FF0000FFFFFFFF
(1784259829.666940) vecan0 19FFD5E1#51FF0000FFFFFFFF
(1784259829.766003) vecan0 19FFFDA5#0177FFFFFFFFFFFF
(1784259829.766641) vecan0 19FFFCA5#0177FFFFFFFFFFFF
(1784259829.767273) vecan0 19FFD7E1#410000007DF41DFF
(1784259829.767894) vecan0 19FFD7E1#510000FFFFF41DFF
(1784259829.768525) vecan0 19FFD5E1#41FF0000FFFFFFFF
(1784259829.769138) vecan0 19FFD5E1#51FF0000FFFFFFFF
(1784259829.864933) vecan0 19FFD7E1#410000007DF41DFF
(1784259829.865553) vecan0 19FFD7E1#510000FFFFF41DFF
(1784259829.866241) vecan0 19FFD5E1#41FF0000FFFFFFFF
(1784259829.866854) vecan0 19FFD5E1#51FF0000FFFFFFFF
(1784259829.945720) vecan0 01FFFDFA#F9140B01FFFFFFFF
(1784259829.968733) vecan0 19FFD7E1#410000007DF41DFF
(1784259829.969357) vecan0 19FFD7E1#510000FFFFF41DFF
(1784259829.969994) vecan0 19FFD5E1#41FF0000FFFFFFFF
(1784259829.970616) vecan0 19FFD5E1#51FF0000FFFFFFFF
(1784259829.971249) vecan0 19FFD4E1#0105FFFFFFFFFFFF
(1784259829.971864) vecan0 19FEA3E1#0101640A01007DFF
(1784259830.061283) vecan0 19FFD7E1#410000007D0B1EFF
(1784259830.061925) vecan0 19FFD7E1#510000FFFF0B1EFF
(1784259830.062565) vecan0 19FFD5E1#41FF0000FFFFFFFF
(1784259830.063181) vecan0 19FFD5E1#51FF0000FFFFFFFF
(1784259830.167227) vecan0 19FFD7E1#410000007D0B1EFF
(1784259830.167902) vecan0 19FFD7E1#510000FFFF0B1EFF
(1784259830.168536) vecan0 19FFD5E1#41FF0000FFFFFFFF
(1784259830.169141) vecan0 19FFD5E1#51FF0000FFFFFFFF
(1784259830.272575) vecan0 19FFFDA5#0177FFFFFFFFFFFF
(1784259830.273203) vecan0 19FFFCA5#0177FFFFFFFFFFFF
(1784259830.273821) vecan0 19FFD7E1#410000007D0B1EFF
(1784259830.274437) vecan0 19FFD7E1#510000FFFF0B1EFF
(1784259830.275074) vecan0 19FFD5E1#41FF0000FFFFFFFF
(1784259830.275696) vecan0 19FFD5E1#51FF0000FFFFFFFF
(1784259830.359831) vecan0 19FFD7E1#410000007D0B1EFF
(1784259830.360434) vecan0 19FFD7E1#510000FFFF0B1EFF
(1784259830.361060) vecan0 19FFD5E1#41FF0000FFFFFFFF
(1784259830.361668) vecan0 19FFD5E1#51FF0000FFFFFFFF
(1784259830.423052) vecan0 01FFFDFA#F9140B01FFFFFFFF
(1784259830.425230) vecan0 01FFB7FA#0349643D005400FF
(1784259830.431679) vecan0 01FF9CFA#FA6A26FFFFFFFFFF
(1784259830.433751) vecan0 01FF9CFA#F9FEFFFFFFFFFFFF
(1784259830.435421) vecan0 01FF9CFA#F8FEFFFFFFFFFFFF
(1784259830.442416) vecan0 00EEFF10#0000E0FF00803C80
(1784259830.448216) vecan0 01FFFFFA#1A07100517313408
(1784259830.461959) vecan0 19FFD7E1#410000007D0B1EFF
(1784259830.462571) vecan0 19FFD7E1#510000FFFF0B1EFF
(1784259830.463205) vecan0 19FFD5E1#41FF0000FFFFFFFF
(1784259830.463823) vecan0 19FFD5E1#51FF0000FFFFFFFF
(1784259830.464452) vecan0 19FFD4E1#0105FFFFFFFFFFFF
(1784259830.465066) vecan0 19FEA3E1#0101640A01007DFF
(1784259830.562591) vecan0 19FFD7E1#410000007DF41DFF
(1784259830.563211) vecan0 19FFD7E1#510000FFFFF41DFF
(1784259830.563875) vecan0 19FFD5E1#41FF0000FFFFFFFF
(1784259830.564478) vecan0 19FFD5E1#51FF0000FFFFFFFF
(1784259830.665691) vecan0 19FFD7E1#410000007DF41DFF
(1784259830.666300) vecan0 19FFD7E1#510000FFFFF41DFF
(1784259830.666936) vecan0 19FFD5E1#41FF0000FFFFFFFF
(1784259830.667553) vecan0 19FFD5E1#51FF0000FFFFFFFF
(1784259830.762646) vecan0 19FFFDA5#0177FFFFFFFFFFFF
(1784259830.763306) vecan0 19FFFCA5#0177FFFFFFFFFFFF
(1784259830.763952) vecan0 18FECAA3#0545FFFFFFFFFFFF
(1784259830.764569) vecan0 19FECAA3#0545FFFFFFFFFFFF
(1784259830.765186) vecan0 19FFD7E1#410000007DF41DFF
(1784259830.765797) vecan0 19FFD7E1#510000FFFFF41DFF
(1784259830.766426) vecan0 19FFD5E1#41FF0000FFFFFFFF
(1784259830.767042) vecan0 19FFD5E1#51FF0000FFFFFFFF
(1784259830.862776) vecan0 19FFD7E1#410000007DF41DFF
(1784259830.863379) vecan0 19FFD7E1#510000FFFFF41DFF
(1784259830.864008) vecan0 19FFD5E1#41FF0000FFFFFFFF
(1784259830.864622) vecan0 19FFD5E1#51FF0000FFFFFFFF
(1784259830.939946) vecan0 01FFFDFA#F9140B01FFFFFFFF
(1784259830.964950) vecan0 19FFD7E1#410000007D0B1EFF
(1784259830.965557) vecan0 19FFD7E1#510000FFFF0B1EFF
(1784259830.966187) vecan0 19FFD5E1#41FF0000FFFFFFFF
(1784259830.966802) vecan0 19FFD5E1#51FF0000FFFFFFFF
(1784259830.967433) vecan0 19FFD4E1#0105FFFFFFFFFFFF
(1784259830.968139) vecan0 19FEA3E1#0101640A01007DFF
(1784259831.062963) vecan0 19FFD7E1#410000007D0B1EFF
(1784259831.063566) vecan0 19FFD7E1#510000FFFF0B1EFF
(1784259831.064195) vecan0 19FFD5E1#41FF0000FFFFFFFF
(1784259831.064803) vecan0 19FFD5E1#51FF0000FFFFFFFF
(1784259831.162908) vecan0 19FFD7E1#410000007D0B1EFF
(1784259831.163510) vecan0 19FFD7E1#510000FFFF0B1EFF
(1784259831.164140) vecan0 19FFD5E1#41FF0000FFFFFFFF
(1784259831.164755) vecan0 19FFD5E1#51FF0000FFFFFFFF
(1784259831.266578) vecan0 19FFFDA5#0177FFFFFFFFFFFF
(1784259831.267208) vecan0 19FFFCA5#0177FFFFFFFFFFFF
(1784259831.267878) vecan0 19FFD7E1#410000007D0B1EFF
(1784259831.268495) vecan0 19FFD7E1#510000FFFF0B1EFF
(1784259831.269126) vecan0 19FFD5E1#41FF0000FFFFFFFF
(1784259831.269742) vecan0 19FFD5E1#51FF0000FFFFFFFF
(1784259831.366544) vecan0 19FFD7E1#410000007D0B1EFF
(1784259831.367192) vecan0 19FFD7E1#510000FFFF0B1EFF
(1784259831.367843) vecan0 19FFD5E1#41FF0000FFFFFFFF
(1784259831.368469) vecan0 19FFD5E1#51FF0000FFFFFFFF
(1784259831.413922) vecan0 01FFFDFA#F9140B01FFFFFFFF
(1784259831.432963) vecan0 00EEFF10#0000E0FF00803C80
(1784259831.441059) vecan0 01FFFFFA#1A07100517313508
(1784259831.460518) vecan0 01FFB7FA#0348643C005400FF
(1784259831.462883) vecan0 19FFD7E1#410000007D0B1EFF
(1784259831.463483) vecan0 19FFD7E1#510000FFFF0B1EFF
(1784259831.464118) vecan0 19FFD5E1#41FF0000FFFFFFFF
(1784259831.464727) vecan0 19FFD5E1#51FF0000FFFFFFFF
(1784259831.465350) vecan0 19FFD4E1#0105FFFFFFFFFFFF
(1784259831.465971) vecan0 19FEA3E1#0101640A01007DFF
(1784259831.560307) vecan0 19FFD7E1#410000007D0B1EFF
(1784259831.560956) vecan0 19FFD7E1#510000FFFF0B1EFF
(1784259831.561587) vecan0 19FFD5E1#41FF0000FFFFFFFF
(1784259831.562205) vecan0 19FFD5E1#51FF0000FFFFFFFF
(1784259831.666503) vecan0 19FFD7E1#410000007D0B1EFF
(1784259831.667108) vecan0 19FFD7E1#510000FFFF0B1EFF
(1784259831.667836) vecan0 19FFD5E1#41FF0000FFFFFFFF
(1784259831.668463) vecan0 19FFD5E1#51FF0000FFFFFFFF
(1784259831.763863) vecan0 19FFFDA5#0177FFFFFFFFFFFF
(1784259831.765048) vecan0 19FFFCA5#0177FFFFFFFFFFFF
(1784259831.765662) vecan0 19FFD7E1#410000007D0B1EFF
(1784259831.766290) vecan0 19FFD7E1#510000FFFF0B1EFF
(1784259831.766928) vecan0 19FFD5E1#41FF0000FFFFFFFF
(1784259831.767541) vecan0 19FFD5E1#51FF0000FFFFFFFF
(1784259831.866536) vecan0 19FFD7E1#410000007DF41DFF
(1784259831.867177) vecan0 19FFD7E1#510000FFFFF41DFF
(1784259831.867833) vecan0 19FFD5E1#41FF0000FFFFFFFF
(1784259831.868452) vecan0 19FFD5E1#51FF0000FFFFFFFF
(1784259831.932859) vecan0 01FFFDFA#F9140A01FFFFFFFF
(1784259831.965682) vecan0 19FFD7E1#410000007DF41DFF
(1784259831.966290) vecan0 19FFD7E1#510000FFFFF41DFF
(1784259831.966913) vecan0 19FFD5E1#41FF0000FFFFFFFF
(1784259831.967523) vecan0 19FFD5E1#51FF0000FFFFFFFF
(1784259831.968150) vecan0 19FFD4E1#0105FFFFFFFFFFFF
(1784259831.968775) vecan0 19FEA3E1#0101640A01007DFF
(1784259832.064676) vecan0 19FFD7E1#410000007DF41DFF
(1784259832.065276) vecan0 19FFD7E1#510000FFFFF41DFF
(1784259832.065901) vecan0 19FFD5E1#41FF0000FFFFFFFF
(1784259832.066519) vecan0 19FFD5E1#51FF0000FFFFFFFF
(1784259832.166044) vecan0 19FFD7E1#410000007DF41DFF
(1784259832.166657) vecan0 19FFD7E1#510000FFFFF41DFF
(1784259832.167281) vecan0 19FFD5E1#41FF0000FFFFFFFF
(1784259832.168339) vecan0 19FFD5E1#51FF0000FFFFFFFF
(1784259832.261328) vecan0 19FFFDA5#0177FFFFFFFFFFFF
(1784259832.261953) vecan0 19FFFCA5#0177FFFFFFFFFFFF
(1784259832.262582) vecan0 19FFD7E1#410000007DF41DFF
(1784259832.263206) vecan0 19FFD7E1#510000FFFFF41DFF
(1784259832.263839) vecan0 19FFD5E1#41FF0000FFFFFFFF
(1784259832.264458) vecan0 19FFD5E1#51FF0000FFFFFFFF
(1784259832.361068) vecan0 19FFD7E1#410000007DF41DFF
(1784259832.361685) vecan0 19FFD7E1#510000FFFFF41DFF
(1784259832.362314) vecan0 19FFD5E1#41FF0000FFFFFFFF
(1784259832.362923) vecan0 19FFD5E1#51FF0000FFFFFFFF
(1784259832.421637) vecan0 00EEFF10#0000E0FF00803C80
(1784259832.427429) vecan0 01FFFFFA#1A07100517313608
(1784259832.442900) vecan0 01FFFDFA#F9140B01FFFFFFFF
(1784259832.465873) vecan0 19FFD7E1#410000007DF41DFF
(1784259832.466475) vecan0 19FFD7E1#510000FFFFF41DFF
(1784259832.467182) vecan0 19FFD5E1#41FF0000FFFFFFFF
(1784259832.467853) vecan0 19FFD5E1#51FF0000FFFFFFFF
(1784259832.468480) vecan0 19FFD4E1#0105FFFFFFFFFFFF
(1784259832.469086) vecan0 19FEA3E1#0101640A01007DFF
(1784259832.564349) vecan0 19FFD7E1#410000007DF41DFF
(1784259832.564964) vecan0 19FFD7E1#510000FFFFF41DFF
(1784259832.565601) vecan0 19FFD5E1#41FF0000FFFFFFFF
(1784259832.566211) vecan0 19FFD5E1#51FF0000FFFFFFFF
(1784259832.663094) vecan0 19FFD7E1#410000007DF41DFF
(1784259832.663707) vecan0 19FFD7E1#510000FFFFF41DFF
(1784259832.664344) vecan0 19FFD5E1#41FF0000FFFFFFFF
(1784259832.664963) vecan0 19FFD5E1#51FF0000FFFFFFFF
(1784259832.763573) vecan0 19FFFDA5#0177FFFFFFFFFFFF
(1784259832.764188) vecan0 19FFFCA5#0177FFFFFFFFFFFF
(1784259832.764791) vecan0 19FFD7E1#410000007D0B1EFF
(1784259832.765411) vecan0 19FFD7E1#510000FFFF0B1EFF
(1784259832.766039) vecan0 19FFD5E1#41FF0000FFFFFFFF
(1784259832.766746) vecan0 19FFD5E1#51FF0000FFFFFFFF
(1784259832.861276) vecan0 19FFD7E1#410000007D0B1EFF
(1784259832.861882) vecan0 19FFD7E1#510000FFFF0B1EFF
(1784259832.862514) vecan0 19FFD5E1#41FF0000FFFFFFFF
(1784259832.863130) vecan0 19FFD5E1#51FF0000FFFFFFFF
(1784259832.920416) vecan0 01FFFDFA#F9140B01FFFFFFFF
(1784259832.964658) vecan0 19FFD7E1#410000007D0B1EFF
(1784259832.965259) vecan0 19FFD7E1#510000FFFF0B1EFF
(1784259832.965882) vecan0 19FFD5E1#41FF0000FFFFFFFF
(1784259832.966489) vecan0 19FFD5E1#51FF0000FFFFFFFF
(1784259832.967110) vecan0 19FFD4E1#0105FFFFFFFFFFFF
(1784259832.967810) vecan0 19FFCAE1#018608007D271EFF
(1784259832.968416) vecan0 19FFCAE1#114E08007D271EFF
(1784259832.969043) vecan0 19FFC9E1#01FFFFFFFFFFFF14
(1784259832.969665) vecan0 19FFC8E1#01FF0000FFFFFFFF
(1784259832.970516) vecan0 19FFC8E1#11FF0000FFFFFFFF
(1784259832.971135) vecan0 19FEA3E1#0101640A01007DFF
(1784259833.062812) vecan0 19FFD7E1#410000007D0B1EFF
(1784259833.063414) vecan0 19FFD7E1#510000FFFF0B1EFF
(1784259833.064109) vecan0 19FFD5E1#41FF0000FFFFFFFF
(1784259833.064737) vecan0 19FFD5E1#51FF0000FFFFFFFF
(1784259833.159815) vecan0 19FFD7E1#410000007D0B1EFF
(1784259833.160420) vecan0 19FFD7E1#510000FFFF0B1EFF
(1784259833.161057) vecan0 19FFD5E1#41FF0000FFFFFFFF
(1784259833.161668) vecan0 19FFD5E1#51FF0000FFFFFFFF
(1784259833.269209) vecan0 18FECAE2#0544FFFFFFFFFFFF
(1784259833.269820) vecan0 19FECAE2#0544FFFFFFFFFFFF
(1784259833.270427) vecan0 18FECAA5#0545FFFFFFFFFFFF
(1784259833.271095) vecan0 19FECAA5#0545FFFFFFFFFFFF
(1784259833.271719) vecan0 19FFFDA5#0177FFFFFFFFFFFF
(1784259833.272346) vecan0 19FFFCA5#0177FFFFFFFFFFFF
(1784259833.272957) vecan0 19FFD7E1#410000007D0B1EFF
(1784259833.273611) vecan0 19FFD7E1#510000FFFF0B1EFF
(1784259833.274267) vecan0 19FFD5E1#41FF0000FFFFFFFF
(1784259833.274930) vecan0 19FFD5E1#51FF0000FFFFFFFF
(1784259833.361690) vecan0 19FFD7E1#410000007D0B1EFF
(1784259833.362303) vecan0 19FFD7E1#510000FFFF0B1EFF
(1784259833.362926) vecan0 19FFD5E1#41FF0000FFFFFFFF
(1784259833.363561) vecan0 19FFD5E1#51FF0000FFFFFFFF
(1784259833.431658) vecan0 01FFB3FA#FDFFFFFFFFFFFFFF
(1784259833.434377) vecan0 01FFB1FA#30FFFFFFFFFFFFFF
(1784259833.437084) vecan0 00FECAFA#0080FFFFFFFF
(1784259833.446192) vecan0 01FFFDFA#F9140B01FFFFFFFF
(1784259833.448256) vecan0 01FFDCFA#00E7260100FFFFFF
(1784259833.449934) vecan0 01FFB7FA#00000A00006801FF
(1784259833.452847) vecan0 01FFB7FA#01000A0000BD00FF
(1784259833.454959) vecan0 01FFB7FA#02000A00007B01FF
(1784259833.457566) vecan0 00FECAFA#4548010004FF
(1784259833.459584) vecan0 18FECAE1#1442000012FFFFFF
(1784259833.460189) vecan0 19FECAE1#1442000012FFFFFF
(1784259833.460857) vecan0 19FFD7E1#410000007D0B1EFF
(1784259833.461466) vecan0 19FFD7E1#510000FFFF0B1EFF
(1784259833.462091) vecan0 19FFD5E1#41FF0000FFFFFFFF
(1784259833.462707) vecan0 19FFD5E1#51FF0000FFFFFFFF
(1784259833.463337) vecan0 19FFD4E1#0105FFFFFFFFFFFF
(1784259833.463895) vecan0 01FFB7FA#0348643C005400FF
(1784259833.464472) vecan0 19FFC7E1#010E016086C801FF
(1784259833.465093) vecan0 19FEA3E1#0101640A01007DFF
(1784259833.465711) vecan0 18FECAA4#0545FFFFFFFFFFFF
(1784259833.466338) vecan0 19FECAA4#0545FFFFFFFFFFFF
(1784259833.467585) vecan0 01FF9CFA#FA6A26FFFFFFFFFF
(1784259833.469825) vecan0 01FF9CFA#F9FEFFFFFFFFFFFF
(1784259833.472223) vecan0 01FF9CFA#F8FEFFFFFFFFFFFF
(1784259833.474404) vecan0 00FECAFA#0558FFFFFFFF
(1784259833.476612) vecan0 00FECAFA#0558FFFFFFFF
(1784259833.479008) vecan0 00FECAFA#0558FFFFFFFF
(1784259833.481073) vecan0 00FECAFA#0558FFFFFFFF
(1784259833.483540) vecan0 00EEFF10#0000E0FF00803C80
(1784259833.485632) vecan0 01FFFFFA#1A07100517313708
(1784259833.488021) vecan0 01FF80FA#00000000002D05FF
(1784259833.490013) vecan0 01FFC7FA#010B01007DFF06FF
(1784259833.492274) vecan0 01FFD4FA#00FFFFFFFFFFFFFF
(1784259833.494420) vecan0 01FFD4FA#00FFFFFFFFFFFFFF
(1784259833.517110) vecan0 18FECAA0#0545FFFFFFFFFFFF
(1784259833.517763) vecan0 19FECAA0#0545FFFFFFFFFFFF
(1784259833.562996) vecan0 19FFD7E1#410000007D0B1EFF
(1784259833.563666) vecan0 19FFD7E1#510000FFFF0B1EFF
(1784259833.564299) vecan0 19FFD5E1#41FF0000FFFFFFFF
(1784259833.564911) vecan0 19FFD5E1#51FF0000FFFFFFFF
(1784259833.658830) vecan0 19FFD7E1#410000007DF41DFF
(1784259833.659446) vecan0 19FFD7E1#510000FFFFF41DFF
(1784259833.660086) vecan0 19FFD5E1#41FF0000FFFFFFFF
(1784259833.660700) vecan0 19FFD5E1#51FF0000FFFFFFFF
(1784259833.766158) vecan0 19FFFDA5#0177FFFFFFFFFFFF
(1784259833.766780) vecan0 19FFFCA5#0177FFFFFFFFFFFF
(1784259833.767401) vecan0 19FFD7E1#410000007DF41DFF
(1784259833.768022) vecan0 19FFD7E1#510000FFFFF41DFF
(1784259833.768715) vecan0 19FFD5E1#41FF0000FFFFFFFF
(1784259833.769335) vecan0 19FFD5E1#51FF0000FFFFFFFF
(1784259833.865990) vecan0 19FFD7E1#410000007DF41DFF
(1784259833.866595) vecan0 19FFD7E1#510000FFFFF41DFF
(1784259833.867226) vecan0 19FFD5E1#41FF0000FFFFFFFF
(1784259833.867848) vecan0 19FFD5E1#51FF0000FFFFFFFF
(1784259833.911946) vecan0 18FECAA2#0545FFFFFFFFFFFF
(1784259833.912548) vecan0 19FECAA2#0545FFFFFFFFFFFF
(1784259833.923790) vecan0 01FFFDFA#F9140B01FFFFFFFF
(1784259833.966999) vecan0 19FFD7E1#410000007DF41DFF
(1784259833.967606) vecan0 19FFD7E1#510000FFFFF41DFF
(1784259833.968229) vecan0 19FFD5E1#41FF0000FFFFFFFF
(1784259833.968842) vecan0 19FFD5E1#51FF0000FFFFFFFF
(1784259833.969474) vecan0 19FFD4E1#0105FFFFFFFFFFFF
(1784259833.970122) vecan0 19FEA3E1#0101640A01007DFF
(1784259834.063793) vecan0 19FFD7E1#410000007D0B1EFF
(1784259834.064403) vecan0 19FFD7E1#510000FFFF0B1EFF
(1784259834.065033) vecan0 19FFD5E1#41FF0000FFFFFFFF
(1784259834.065652) vecan0 19FFD5E1#51FF0000FFFFFFFF
(1784259834.160523) vecan0 19FFD7E1#410000007D0B1EFF
(1784259834.161138) vecan0 19FFD7E1#510000FFFF0B1EFF
(1784259834.161773) vecan0 19FFD5E1#41FF0000FFFFFFFF
(1784259834.162388) vecan0 19FFD5E1#51FF0000FFFFFFFF
(1784259834.260766) vecan0 19FFFDA5#0177FFFFFFFFFFFF
(1784259834.261393) vecan0 19FFFCA5#0177FFFFFFFFFFFF
(1784259834.262008) vecan0 19FFD7E1#410000007D0B1EFF
(1784259834.262622) vecan0 19FFD7E1#510000FFFF0B1EFF
(1784259834.263255) vecan0 19FFD5E1#41FF0000FFFFFFFF
(1784259834.263869) vecan0 19FFD5E1#51FF0000FFFFFFFF
(1784259834.367183) vecan0 19FFD7E1#410000007D0B1EFF
(1784259834.367819) vecan0 19FFD7E1#510000FFFF0B1EFF
(1784259834.368453) vecan0 19FFD5E1#41FF0000FFFFFFFF
(1784259834.369065) vecan0 19FFD5E1#51FF0000FFFFFFFF
(1784259834.432851) vecan0 01FFFDFA#F9140B01FFFFFFFF
(1784259834.435237) vecan0 01FFC7FA#010C01007DFF06FF
(1784259834.441251) vecan0 01FFB7FA#0349643D005400FF
(1784259834.452337) vecan0 00EEFF10#0000E0FF00803C80
(1784259834.460761) vecan0 01FFFFFA#1A07100517313808
(1784259834.462461) vecan0 19FFD7E1#410000007D0B1EFF
(1784259834.463064) vecan0 19FFD7E1#510000FFFF0B1EFF
(1784259834.463684) vecan0 19FFD5E1#41FF0000FFFFFFFF
(1784259834.464293) vecan0 19FFD5E1#51FF0000FFFFFFFF
(1784259834.464909) vecan0 19FFD4E1#0105FFFFFFFFFFFF
(1784259834.465527) vecan0 19FEA3E1#0101640A01007DFF
(1784259834.565601) vecan0 19FFD7E1#410000007D0B1EFF
(1784259834.566213) vecan0 19FFD7E1#510000FFFF0B1EFF
(1784259834.567007) vecan0 19FFD5E1#41FF0000FFFFFFFF
(1784259834.567624) vecan0 19FFD5E1#51FF0000FFFFFFFF
(1784259834.659728) vecan0 19FFD7E1#410000007D0B1EFF
(1784259834.660333) vecan0 19FFD7E1#510000FFFF0B1EFF
(1784259834.660967) vecan0 19FFD5E1#41FF0000FFFFFFFF
(1784259834.661590) vecan0 19FFD5E1#51FF0000FFFFFFFF
(1784259834.765394) vecan0 19FFFDA5#0177FFFFFFFFFFFF
(1784259834.766016) vecan0 19FFFCA5#0177FFFFFFFFFFFF
(1784259834.766631) vecan0 19FFD7E1#410000007D0B1EFF
(1784259834.767235) vecan0 19FFD7E1#510000FFFF0B1EFF
(1784259834.767857) vecan0 19FFD5E1#41FF0000FFFFFFFF
(1784259834.768462) vecan0 19FFD5E1#51FF0000FFFFFFFF
(1784259834.865839) vecan0 19FFD7E1#410000007D0B1EFF
(1784259834.866441) vecan0 19FFD7E1#510000FFFF0B1EFF
(1784259834.867113) vecan0 19FFD5E1#41FF0000FFFFFFFF
(1784259834.867806) vecan0 19FFD5E1#51FF0000FFFFFFFF
(1784259834.917857) vecan0 01FFFDFA#F9140B01FFFFFFFF
(1784259834.931013) vecan0 00EFFA9B#F4FFFFFFFFFFFFFF
(1784259834.933170) vecan0 00EF9BFA#F050105154000001
(1784259834.963993) vecan0 19FFD7E1#410000007D0B1EFF
(1784259834.964599) vecan0 19FFD7E1#510000FFFF0B1EFF
(1784259834.965224) vecan0 19FFD5E1#41FF0000FFFFFFFF
(1784259834.965833) vecan0 19FFD5E1#51FF0000FFFFFFFF
(1784259834.966444) vecan0 19FFD4E1#0105FFFFFFFFFFFF
(1784259834.967064) vecan0 19FEA3E1#0101640A01007DFF
(1784259835.065545) vecan0 19FFD7E1#410000007DF41DFF
(1784259835.066155) vecan0 19FFD7E1#510000FFFFF41DFF
(1784259835.066780) vecan0 19FFD5E1#41FF0000FFFFFFFF
(1784259835.067394) vecan0 19FFD5E1#51FF0000FFFFFFFF
(1784259835.163806) vecan0 19FFD7E1#410000007DF41DFF
(1784259835.164419) vecan0 19FFD7E1#510000FFFFF41DFF
(1784259835.165054) vecan0 19FFD5E1#41FF0000FFFFFFFF
(1784259835.165670) vecan0 19FFD5E1#51FF0000FFFFFFFF
(1784259835.267886) vecan0 19FFFDA5#0177FFFFFFFFFFFF
(1784259835.268509) vecan0 19FFFCA5#0177FFFFFFFFFFFF
(1784259835.269135) vecan0 19FFD7E1#410000007DF41DFF
(1784259835.269753) vecan0 19FFD7E1#510000FFFFF41DFF
(1784259835.270377) vecan0 19FFD5E1#41FF0000FFFFFFFF
(1784259835.271395) vecan0 19FFD5E1#51FF0000FFFFFFFF
(1784259835.365601) vecan0 19FFD7E1#410000007DF41DFF
(1784259835.366214) vecan0 19FFD7E1#510000FFFFF41DFF
(1784259835.366844) vecan0 19FFD5E1#41FF0000FFFFFFFF
(1784259835.367459) vecan0 19FFD5E1#51FF0000FFFFFFFF
(1784259835.427586) vecan0 01FFFDFA#F9140B01FFFFFFFF
(1784259835.430042) vecan0 01FFC7FA#010B01007DFF06FF
(1784259835.435923) vecan0 01FFB7FA#0348643C005400FF
(1784259835.446541) vecan0 00EEFF10#0000E0FF00803C80
(1784259835.454816) vecan0 01FFFFFA#1A07100517313908
(1784259835.458623) vecan0 19FFD7E1#410000007DF41DFF
(1784259835.459236) vecan0 19FFD7E1#510000FFFFF41DFF
(1784259835.459870) vecan0 19FFD5E1#41FF0000FFFFFFFF
(1784259835.460487) vecan0 19FFD5E1#51FF0000FFFFFFFF
(1784259835.461119) vecan0 19FFD4E1#0105FFFFFFFFFFFF
(1784259835.461739) vecan0 19FEA3E1#0101640A01007DFF
(1784259835.560488) vecan0 19FFD7E1#410000007DF41DFF
(1784259835.561101) vecan0 19FFD7E1#510000FFFFF41DFF
(1784259835.561737) vecan0 19FFD5E1#41FF0000FFFFFFFF
(1784259835.562355) vecan0 19FFD5E1#51FF0000FFFFFFFF
(1784259835.665228) vecan0 19FFD7E1#410000007DF41DFF
(1784259835.665883) vecan0 19FFD7E1#510000FFFFF41DFF
(1784259835.666513) vecan0 19FFD5E1#41FF0000FFFFFFFF
(1784259835.667174) vecan0 19FFD5E1#51FF0000FFFFFFFF
(1784259835.759265) vecan0 19FFFDA5#0177FFFFFFFFFFFF
(1784259835.759884) vecan0 19FFFCA5#0177FFFFFFFFFFFF
(1784259835.760499) vecan0 18FECAA3#0545FFFFFFFFFFFF
(1784259835.761115) vecan0 19FECAA3#0545FFFFFFFFFFFF
(1784259835.761741) vecan0 19FFD7E1#410000007DF41DFF
(1784259835.762359) vecan0 19FFD7E1#510000FFFFF41DFF
(1784259835.762983) vecan0 19FFD5E1#41FF0000FFFFFFFF
(1784259835.763589) vecan0 19FFD5E1#51FF0000FFFFFFFF
(1784259835.860578) vecan0 19FFD7E1#410000007DF41DFF
(1784259835.861195) vecan0 19FFD7E1#510000FFFFF41DFF
(1784259835.861827) vecan0 19FFD5E1#41FF0000FFFFFFFF
(1784259835.862450) vecan0 19FFD5E1#51FF0000FFFFFFFF
(1784259835.944656) vecan0 01FFFDFA#F9140B01FFFFFFFF
(1784259835.967414) vecan0 19FFD7E1#410000007DF41DFF
(1784259835.968023) vecan0 19FFD7E1#510000FFFFF41DFF
(1784259835.968651) vecan0 19FFD5E1#41FF0000FFFFFFFF
(1784259835.969258) vecan0 19FFD5E1#51FF0000FFFFFFFF
(1784259835.969874) vecan0 19FFD4E1#0105FFFFFFFFFFFF
(1784259835.970492) vecan0 19FEA3E1#0101640A01007DFF
(1784259836.066156) vecan0 19FFD7E1#410000007DF41DFF
(1784259836.066767) vecan0 19FFD7E1#510000FFFFF41DFF
(1784259836.067432) vecan0 19FFD5E1#41FF0000FFFFFFFF
(1784259836.068036) vecan0 19FFD5E1#51FF0000FFFFFFFF
(1784259836.167277) vecan0 19FFD7E1#410000007DF41DFF
(1784259836.167899) vecan0 19FFD7E1#510000FFFFF41DFF
(1784259836.168526) vecan0 19FFD5E1#41FF0000FFFFFFFF
(1784259836.169144) vecan0 19FFD5E1#51FF0000FFFFFFFF
(1784259836.265503) vecan0 19FFFDA5#0177FFFFFFFFFFFF
(1784259836.266142) vecan0 19FFFCA5#0177FFFFFFFFFFFF
(1784259836.266770) vecan0 19FFD7E1#410000007DF41DFF
(1784259836.267389) vecan0 19FFD7E1#510000FFFFF41DFF
(1784259836.268012) vecan0 19FFD5E1#41FF0000FFFFFFFF
(1784259836.268618) vecan0 19FFD5E1#51FF0000FFFFFFFF
(1784259836.372214) vecan0 19FFD7E1#410000007D0B1EFF
(1784259836.372821) vecan0 19FFD7E1#510000FFFF0B1EFF
(1784259836.373453) vecan0 19FFD5E1#41FF0000FFFFFFFF
(1784259836.374067) vecan0 19FFD5E1#51FF0000FFFFFFFF
(1784259836.421406) vecan0 01FFFDFA#F9140B01FFFFFFFF
(1784259836.429910) vecan0 01FF9CFA#FA6C26FFFFFFFFFF
(1784259836.432050) vecan0 01FF9CFA#F9FEFFFFFFFFFFFF
(1784259836.434409) vecan0 01FF9CFA#F8FEFFFFFFFFFFFF
(1784259836.440763) vecan0 00EEFF10#0000E0FF00803C80
(1784259836.449263) vecan0 01FFFFFA#1A07100517313A08
(1784259836.462861) vecan0 19FFD7E1#410000007D0B1EFF
(1784259836.463467) vecan0 19FFD7E1#510000FFFF0B1EFF
(1784259836.464089) vecan0 19FFD5E1#41FF0000FFFFFFFF
(1784259836.464696) vecan0 19FFD5E1#51FF0000FFFFFFFF
(1784259836.465311) vecan0 19FFD4E1#0105FFFFFFFFFFFF
(1784259836.465929) vecan0 19FEA3E1#0101640A01007DFF
(1784259836.563860) vecan0 19FFD7E1#410000007D0B1EFF
(1784259836.564470) vecan0 19FFD7E1#510000FFFF0B1EFF
(1784259836.565100) vecan0 19FFD5E1#41FF0000FFFFFFFF
(1784259836.565717) vecan0 19FFD5E1#51FF0000FFFFFFFF
(1784259836.667211) vecan0 19FFD7E1#410000007D0B1EFF
(1784259836.667815) vecan0 19FFD7E1#510000FFFF0B1EFF
(1784259836.668451) vecan0 19FFD5E1#41FF0000FFFFFFFF
(1784259836.669071) vecan0 19FFD5E1#51FF0000FFFFFFFF
(1784259836.765212) vecan0 19FFFDA5#0177FFFFFFFFFFFF
(1784259836.765833) vecan0 19FFFCA5#0177FFFFFFFFFFFF
(1784259836.766438) vecan0 19FFD7E1#410000007D0B1EFF
(1784259836.767038) vecan0 19FFD7E1#510000FFFF0B1EFF
(1784259836.767679) vecan0 19FFD5E1#41FF0000FFFFFFFF
(1784259836.768292) vecan0 19FFD5E1#51FF0000FFFFFFFF
(1784259836.862298) vecan0 19FFD7E1#410000007D0B1EFF
(1784259836.862899) vecan0 19FFD7E1#510000FFFF0B1EFF
(1784259836.863529) vecan0 19FFD5E1#41FF0000FFFFFFFF
(1784259836.864144) vecan0 19FFD5E1#51FF0000FFFFFFFF
(1784259836.938462) vecan0 01FFFDFA#F9140B01FFFFFFFF
(1784259836.960693) vecan0 19FFD7E1#410000007D0B1EFF
(1784259836.961291) vecan0 19FFD7E1#510000FFFF0B1EFF
(1784259836.961915) vecan0 19FFD5E1#41FF0000FFFFFFFF
(1784259836.962527) vecan0 19FFD5E1#51FF0000FFFFFFFF
(1784259836.963142) vecan0 19FFD4E1#0105FFFFFFFFFFFF
(1784259836.963757) vecan0 19FEA3E1#0101640A01007DFF
(1784259837.065059) vecan0 19FFD7E1#410000007D0B1EFF
(1784259837.065662) vecan0 19FFD7E1#510000FFFF0B1EFF
(1784259837.066286) vecan0 19FFD5E1#41FF0000FFFFFFFF
(1784259837.066891) vecan0 19FFD5E1#51FF0000FFFFFFFF
(1784259837.163292) vecan0 19FFD7E1#410000007D0B1EFF
(1784259837.163901) vecan0 19FFD7E1#510000FFFF0B1EFF
(1784259837.164529) vecan0 19FFD5E1#41FF0000FFFFFFFF
(1784259837.165170) vecan0 19FFD5E1#51FF0000FFFFFFFF
(1784259837.264663) vecan0 19FFFDA5#0177FFFFFFFFFFFF
(1784259837.265291) vecan0 19FFFCA5#0177FFFFFFFFFFFF
(1784259837.265904) vecan0 19FFD7E1#410000007D0B1EFF
(1784259837.266509) vecan0 19FFD7E1#510000FFFF0B1EFF
(1784259837.267163) vecan0 19FFD5E1#41FF0000FFFFFFFF
(1784259837.267826) vecan0 19FFD5E1#51FF0000FFFFFFFF
(1784259837.359371) vecan0 19FFD7E1#410000007D0B1EFF
(1784259837.359975) vecan0 19FFD7E1#510000FFFF0B1EFF
(1784259837.360612) vecan0 19FFD5E1#41FF0000FFFFFFFF
(1784259837.361224) vecan0 19FFD5E1#51FF0000FFFFFFFF
(1784259837.430159) vecan0 00EEFF10#0000E0FF00803C80
(1784259837.433224) vecan0 01FFFFFA#1A07100517313B08
(1784259837.448842) vecan0 01FFFDFA#F9140B01FFFFFFFF
(1784259837.461035) vecan0 19FFD7E1#410000007D0B1EFF
(1784259837.461632) vecan0 19FFD7E1#510000FFFF0B1EFF
(1784259837.462260) vecan0 19FFD5E1#41FF0000FFFFFFFF
(1784259837.462869) vecan0 19FFD5E1#51FF0000FFFFFFFF
(1784259837.463483) vecan0 19FFD4E1#0105FFFFFFFFFFFF
(1784259837.464156) vecan0 19FEA3E1#0101640A01007DFF
(1784259837.578632) vecan0 19FFD7E1#410000007D0B1EFF
(1784259837.579285) vecan0 19FFD7E1#510000FFFF0B1EFF
(1784259837.579965) vecan0 19FFD5E1#41FF0000FFFFFFFF
(1784259837.580634) vecan0 19FFD5E1#51FF0000FFFFFFFF
(1784259837.662764) vecan0 19FFD7E1#410000007DF41DFF
(1784259837.663390) vecan0 19FFD7E1#510000FFFFF41DFF
(1784259837.664018) vecan0 19FFD5E1#41FF0000FFFFFFFF
(1784259837.664643) vecan0 19FFD5E1#51FF0000FFFFFFFF
(1784259837.765963) vecan0 19FFFDA5#0177FFFFFFFFFFFF
(1784259837.766617) vecan0 19FFFCA5#0177FFFFFFFFFFFF
(1784259837.767236) vecan0 19FFD7E1#410000007DF41DFF
(1784259837.767856) vecan0 19FFD7E1#510000FFFFF41DFF
(1784259837.768486) vecan0 19FFD5E1#41FF0000FFFFFFFF
(1784259837.769104) vecan0 19FFD5E1#51FF0000FFFFFFFF
(1784259837.869337) vecan0 19FFD7E1#410000007DF41DFF
(1784259837.869961) vecan0 19FFD7E1#510000FFFFF41DFF
(1784259837.870707) vecan0 19FFD5E1#41FF0000FFFFFFFF
(1784259837.871318) vecan0 19FFD5E1#51FF0000FFFFFFFF
(1784259837.929520) vecan0 01FFFDFA#F9140B01FFFFFFFF
(1784259837.962596) vecan0 19FFD7E1#410000007DF41DFF
(1784259837.963202) vecan0 19FFD7E1#510000FFFFF41DFF
(1784259837.963827) vecan0 19FFD5E1#41FF0000FFFFFFFF
(1784259837.964446) vecan0 19FFD5E1#51FF0000FFFFFFFF
(1784259837.965071) vecan0 19FFD4E1#0105FFFFFFFFFFFF
(1784259837.965672) vecan0 19FFCAE1#019108007D271EFF
(1784259837.966276) vecan0 19FFCAE1#114E08007D271EFF
(1784259837.966894) vecan0 19FFC9E1#01FFFFFFFFFFFF14
(1784259837.967514) vecan0 19FFC8E1#01FF0000FFFFFFFF
(1784259837.968125) vecan0 19FFC8E1#11FF0000FFFFFFFF
(1784259837.968730) vecan0 19FEA3E1#0101640A01007DFF
(1784259838.066144) vecan0 19FFD7E1#410000007D0B1EFF
(1784259838.066740) vecan0 19FFD7E1#510000FFFF0B1EFF
(1784259838.067377) vecan0 19FFD5E1#41FF0000FFFFFFFF
(1784259838.067977) vecan0 19FFD5E1#51FF0000FFFFFFFF
(1784259838.161517) vecan0 19FFD7E1#410000007D0B1EFF
(1784259838.162143) vecan0 19FFD7E1#510000FFFF0B1EFF
(1784259838.162785) vecan0 19FFD5E1#41FF0000FFFFFFFF
(1784259838.163387) vecan0 19FFD5E1#51FF0000FFFFFFFF
(1784259838.262492) vecan0 18FECAE2#0544FFFFFFFFFFFF
(1784259838.263101) vecan0 19FECAE2#0544FFFFFFFFFFFF
(1784259838.263708) vecan0 18FECAA5#0545FFFFFFFFFFFF
(1784259838.264316) vecan0 19FECAA5#0545FFFFFFFFFFFF
(1784259838.264932) vecan0 19FFFDA5#0177FFFFFFFFFFFF
(1784259838.265550) vecan0 19FFFCA5#0177FFFFFFFFFFFF
(1784259838.266165) vecan0 19FFD7E1#410000007D0B1EFF
(1784259838.266777) vecan0 19FFD7E1#510000FFFF0B1EFF
(1784259838.267405) vecan0 19FFD5E1#41FF0000FFFFFFFF
(1784259838.268011) vecan0 19FFD5E1#51FF0000FFFFFFFF
(1784259838.363232) vecan0 19FFD7E1#410000007D0B1EFF
(1784259838.363831) vecan0 19FFD7E1#510000FFFF0B1EFF
(1784259838.364463) vecan0 19FFD5E1#41FF0000FFFFFFFF
(1784259838.365083) vecan0 19FFD5E1#51FF0000FFFFFFFF
(1784259838.420377) vecan0 00EEFF10#0000E0FF00803C80
(1784259838.428876) vecan0 01FFFFFA#1A07100517320008
(1784259838.431615) vecan0 01FF80FA#00000000002D05FF
(1784259838.434309) vecan0 01FFC7FA#010B01007DFF06FF
(1784259838.436364) vecan0 01FFD4FA#00FFFFFFFFFFFFFF
(1784259838.438859) vecan0 01FFD4FA#00FFFFFFFFFFFFFF
(1784259838.443214) vecan0 01FFB3FA#FDFFFFFFFFFFFFFF
(1784259838.445871) vecan0 01FFB1FA#30FFFFFFFFFFFFFF
(1784259838.448638) vecan0 00FECAFA#0080FFFFFFFF
(1784259838.455071) vecan0 01FFFDFA#F9140B01FFFFFFFF
(1784259838.457284) vecan0 01FFDCFA#00E7260100FFFFFF
(1784259838.459688) vecan0 01FFB7FA#00000A00006801FF
(1784259838.462123) vecan0 01FFB7FA#01000A0000BD00FF
(1784259838.464498) vecan0 01FFB7FA#02000A00007B01FF
(1784259838.466384) vecan0 00FECAFA#4548010004FF
(1784259838.468966) vecan0 01FFB7FA#0348643C005400FF
(1784259838.471013) vecan0 01FF9CFA#FA6C26FFFFFFFFFF
(1784259838.471583) vecan0 18FECAE1#1442000012FFFFFF
(1784259838.472191) vecan0 19FECAE1#1442000012FFFFFF
(1784259838.472828) vecan0 19FFD7E1#410000007DF41DFF
(1784259838.473450) vecan0 19FFD7E1#510000FFFFF41DFF
(1784259838.474105) vecan0 01FF9CFA#F9FEFFFFFFFFFFFF
(1784259838.474627) vecan0 19FFD5E1#41FF0000FFFFFFFF
(1784259838.475250) vecan0 19FFD5E1#51FF0000FFFFFFFF
(1784259838.475916) vecan0 19FFD4E1#0105FFFFFFFFFFFF
(1784259838.476503) vecan0 01FF9CFA#F8FEFFFFFFFFFFFF
(1784259838.477073) vecan0 19FFC7E1#010E016086C801FF
(1784259838.477683) vecan0 19FEA3E1#0101640A01007DFF
(1784259838.478296) vecan0 18FECAA4#0545FFFFFFFFFFFF
(1784259838.478799) vecan0 00FECAFA#0558FFFFFFFF
(1784259838.479376) vecan0 19FECAA4#0545FFFFFFFFFFFF
(1784259838.481018) vecan0 00FECAFA#0558FFFFFFFF
(1784259838.483488) vecan0 00FECAFA#0558FFFFFFFF
(1784259838.485729) vecan0 00FECAFA#0558FFFFFFFF
(1784259838.510957) vecan0 18FECAA0#0545FFFFFFFFFFFF
(1784259838.511580) vecan0 19FECAA0#0545FFFFFFFFFFFF
(1784259838.558693) vecan0 19FFD7E1#410000007DF41DFF
(1784259838.559314) vecan0 19FFD7E1#510000FFFFF41DFF
(1784259838.559984) vecan0 19FFD5E1#41FF0000FFFFFFFF
(1784259838.560638) vecan0 19FFD5E1#51FF0000FFFFFFFF
(1784259838.662899) vecan0 19FFD7E1#410000007DF41DFF
(1784259838.663516) vecan0 19FFD7E1#510000FFFFF41DFF
(1784259838.664149) vecan0 19FFD5E1#41FF0000FFFFFFFF
(1784259838.664763) vecan0 19FFD5E1#51FF0000FFFFFFFF
(1784259838.763637) vecan0 19FFFDA5#0177FFFFFFFFFFFF
(1784259838.764269) vecan0 19FFFCA5#0177FFFFFFFFFFFF
(1784259838.764900) vecan0 19FFD7E1#410000007DF41DFF
(1784259838.765522) vecan0 19FFD7E1#510000FFFFF41DFF
(1784259838.766155) vecan0 19FFD5E1#41FF0000FFFFFFFF
(1784259838.766775) vecan0 19FFD5E1#51FF0000FFFFFFFF
(1784259838.865520) vecan0 19FFD7E1#410000007DF41DFF
(1784259838.866140) vecan0 19FFD7E1#510000FFFFF41DFF
(1784259838.866778) vecan0 19FFD5E1#41FF0000FFFFFFFF
(1784259838.867393) vecan0 19FFD5E1#51FF0000FFFFFFFF
(1784259838.909339) vecan0 18FECAA2#0545FFFFFFFFFFFF
(1784259838.909962) vecan0 19FECAA2#0545FFFFFFFFFFFF
(1784259838.930460) vecan0 01FFFDFA#F9140B01FFFFFFFF
(1784259838.962728) vecan0 19FFD7E1#410000007DF41DFF
(1784259838.963341) vecan0 19FFD7E1#510000FFFFF41DFF
(1784259838.963973) vecan0 19FFD5E1#41FF0000FFFFFFFF
(1784259838.964583) vecan0 19FFD5E1#51FF0000FFFFFFFF
(1784259838.965209) vecan0 19FFD4E1#0105FFFFFFFFFFFF
(1784259838.965880) vecan0 19FEA3E1#0101640A01007DFF
(1784259839.060023) vecan0 19FFD7E1#410000007DF41DFF
(1784259839.060635) vecan0 19FFD7E1#510000FFFFF41DFF
(1784259839.061374) vecan0 19FFD5E1#41FF0000FFFFFFFF
(1784259839.061986) vecan0 19FFD5E1#51FF0000FFFFFFFF
(1784259839.162652) vecan0 19FFD7E1#410000007DF41DFF
(1784259839.163266) vecan0 19FFD7E1#510000FFFFF41DFF
(1784259839.163894) vecan0 19FFD5E1#41FF0000FFFFFFFF
(1784259839.164503) vecan0 19FFD5E1#51FF0000FFFFFFFF
(1784259839.264159) vecan0 19FFFDA5#0177FFFFFFFFFFFF
(1784259839.264785) vecan0 19FFFCA5#0177FFFFFFFFFFFF
(1784259839.265436) vecan0 19FFD7E1#410000007DF41DFF
(1784259839.266063) vecan0 19FFD7E1#510000FFFFF41DFF
(1784259839.266698) vecan0 19FFD5E1#41FF0000FFFFFFFF
(1784259839.267356) vecan0 19FFD5E1#51FF0000FFFFFFFF
(1784259839.360014) vecan0 19FFD7E1#410000007DF41DFF
(1784259839.360633) vecan0 19FFD7E1#510000FFFFF41DFF
(1784259839.361265) vecan0 19FFD5E1#41FF0000FFFFFFFF
(1784259839.361882) vecan0 19FFD5E1#51FF0000FFFFFFFF
(1784259839.427528) vecan0 01FFFFFA#1A07100517320108
(1784259839.442595) vecan0 01FFFDFA#F9140B01FFFFFFFF
(1784259839.451157) vecan0 01FF9CFA#FA6A26FFFFFFFFFF
(1784259839.453296) vecan0 01FF9CFA#F9FEFFFFFFFFFFFF
(1784259839.455764) vecan0 01FF9CFA#F8FEFFFFFFFFFFFF
(1784259839.460485) vecan0 19FFD7E1#410000007DF41DFF
(1784259839.461089) vecan0 19FFD7E1#510000FFFFF41DFF
(1784259839.461714) vecan0 19FFD5E1#41FF0000FFFFFFFF
(1784259839.462324) vecan0 19FFD5E1#51FF0000FFFFFFFF
(1784259839.462892) vecan0 00EEFF10#0000E0FF00803C80
(1784259839.463469) vecan0 19FFD4E1#0105FFFFFFFFFFFF
(1784259839.464082) vecan0 19FEA3E1#0101640A01007DFF
(1784259839.559830) vecan0 19FFD7E1#410000007DF41DFF
(1784259839.560495) vecan0 19FFD7E1#510000FFFFF41DFF
(1784259839.561123) vecan0 19FFD5E1#41FF0000FFFFFFFF
(1784259839.561743) vecan0 19FFD5E1#51FF0000FFFFFFFF
(1784259839.663542) vecan0 19FFD7E1#410000007DF41DFF
(1784259839.664155) vecan0 19FFD7E1#510000FFFFF41DFF
(1784259839.664790) vecan0 19FFD5E1#41FF0000FFFFFFFF
(1784259839.665408) vecan0 19FFD5E1#51FF0000FFFFFFFF
(1784259839.762196) vecan0 19FFFDA5#0177FFFFFFFFFFFF
(1784259839.762818) vecan0 19FFFCA5#0177FFFFFFFFFFFF
(1784259839.763447) vecan0 19FFD7E1#410000007DF41DFF
(1784259839.764061) vecan0 19FFD7E1#510000FFFFF41DFF
(1784259839.764692) vecan0 19FFD5E1#41FF0000FFFFFFFF
(1784259839.765301) vecan0 19FFD5E1#51FF0000FFFFFFFF
(1784259839.863547) vecan0 19FFD7E1#410000007DF41DFF
(1784259839.864209) vecan0 19FFD7E1#510000FFFFF41DFF
(1784259839.864842) vecan0 19FFD5E1#41FF0000FFFFFFFF
(1784259839.865461) vecan0 19FFD5E1#51FF0000FFFFFFFF
(1784259839.922154) vecan0 01FFFDFA#F9140A01FFFFFFFF
(1784259839.963334) vecan0 19FFD7E1#410000007DF41DFF
(1784259839.963942) vecan0 19FFD7E1#510000FFFFF41DFF
(1784259839.964568) vecan0 19FFD5E1#41FF0000FFFFFFFF
(1784259839.965176) vecan0 19FFD5E1#51FF0000FFFFFFFF
(1784259839.965794) vecan0 19FFD4E1#0105FFFFFFFFFFFF
(1784259839.966410) vecan0 19FEA3E1#0101640A01007DFF
(1784259840.064482) vecan0 19FFD7E1#410000007DF41DFF
(1784259840.065097) vecan0 19FFD7E1#510000FFFFF41DFF
(1784259840.065729) vecan0 19FFD5E1#41FF0000FFFFFFFF
(1784259840.066341) vecan0 19FFD5E1#51FF0000FFFFFFFF
(1784259840.163396) vecan0 19FFD7E1#410000007DF41DFF
(1784259840.164014) vecan0 19FFD7E1#510000FFFFF41DFF
(1784259840.164646) vecan0 19FFD5E1#41FF0000FFFFFFFF
(1784259840.165316) vecan0 19FFD5E1#51FF0000FFFFFFFF
(1784259840.262471) vecan0 19FFFDA5#0177FFFFFFFFFFFF
(1784259840.263094) vecan0 19FFFCA5#0177FFFFFFFFFFFF
(1784259840.263731) vecan0 19FFD7E1#410000007DF41DFF
(1784259840.264355) vecan0 19FFD7E1#510000FFFFF41DFF
(1784259840.265030) vecan0 19FFD5E1#41FF0000FFFFFFFF
(1784259840.265645) vecan0 19FFD5E1#51FF0000FFFFFFFF
(1784259840.362690) vecan0 19FFD7E1#410000007D0B1EFF
(1784259840.363296) vecan0 19FFD7E1#510000FFFF0B1EFF
(1784259840.363926) vecan0 19FFD5E1#41FF0000FFFFFFFF
(1784259840.364539) vecan0 19FFD5E1#51FF0000FFFFFFFF
(1784259840.433540) vecan0 01FFFDFA#F9140B01FFFFFFFF
(1784259840.454670) vecan0 00EEFF10#0000E0FF00803C80
(1784259840.460382) vecan0 01FFFFFA#1A07100517320208
(1784259840.462413) vecan0 19FFD7E1#410000007D0B1EFF
(1784259840.463017) vecan0 19FFD7E1#510000FFFF0B1EFF
(1784259840.463649) vecan0 19FFD5E1#41FF0000FFFFFFFF
(1784259840.464266) vecan0 19FFD5E1#51FF0000FFFFFFFF
(1784259840.464889) vecan0 19FFD4E1#0105FFFFFFFFFFFF
(1784259840.465505) vecan0 19FEA3E1#0101640A01007DFF
(1784259840.564328) vecan0 19FFD7E1#410000007D0B1EFF
(1784259840.564942) vecan0 19FFD7E1#510000FFFF0B1EFF
(1784259840.565574) vecan0 19FFD5E1#41FF0000FFFFFFFF
(1784259840.566192) vecan0 19FFD5E1#51FF0000FFFFFFFF
(1784259840.659226) vecan0 19FFD7E1#410000007D0B1EFF
(1784259840.659862) vecan0 19FFD7E1#510000FFFF0B1EFF
(1784259840.660491) vecan0 19FFD5E1#41FF0000FFFFFFFF
(1784259840.661103) vecan0 19FFD5E1#51FF0000FFFFFFFF
(1784259840.760070) vecan0 19FFFDA5#0177FFFFFFFFFFFF
(1784259840.760689) vecan0 19FFFCA5#0177FFFFFFFFFFFF
(1784259840.761297) vecan0 18FECAA3#0545FFFFFFFFFFFF
(1784259840.761918) vecan0 19FECAA3#0545FFFFFFFFFFFF
(1784259840.762545) vecan0 19FFD7E1#410000007DF41DFF
(1784259840.763257) vecan0 19FFD7E1#510000FFFFF41DFF
(1784259840.763897) vecan0 19FFD5E1#41FF0000FFFFFFFF
(1784259840.764513) vecan0 19FFD5E1#51FF0000FFFFFFFF
(1784259840.860466) vecan0 19FFD7E1#410000007DF41DFF
(1784259840.861077) vecan0 19FFD7E1#510000FFFFF41DFF
(1784259840.861706) vecan0 19FFD5E1#41FF0000FFFFFFFF
(1784259840.862307) vecan0 19FFD5E1#51FF0000FFFFFFFF
(1784259840.917934) vecan0 01FFFDFA#F9140B01FFFFFFFF
(1784259840.964128) vecan0 19FFD7E1#410000007DF41DFF
(1784259840.964740) vecan0 19FFD7E1#510000FFFFF41DFF
(1784259840.965384) vecan0 19FFD5E1#41FF0000FFFFFFFF
(1784259840.965993) vecan0 19FFD5E1#51FF0000FFFFFFFF
(1784259840.966617) vecan0 19FFD4E1#0105FFFFFFFFFFFF
(1784259840.967229) vecan0 19FEA3E1#0101640A01007DFF
(1784259841.064380) vecan0 19FFD7E1#410000007DF41DFF
(1784259841.065017) vecan0 19FFD7E1#510000FFFFF41DFF
(1784259841.065647) vecan0 19FFD5E1#41FF0000FFFFFFFF
(1784259841.066386) vecan0 19FFD5E1#51FF0000FFFFFFFF
(1784259841.160422) vecan0 19FFD7E1#410000007D0B1EFF
(1784259841.161036) vecan0 19FFD7E1#510000FFFF0B1EFF
(1784259841.161670) vecan0 19FFD5E1#41FF0000FFFFFFFF
(1784259841.162284) vecan0 19FFD5E1#51FF0000FFFFFFFF
(1784259841.261443) vecan0 19FFFDA5#0177FFFFFFFFFFFF
(1784259841.262068) vecan0 19FFFCA5#0177FFFFFFFFFFFF
(1784259841.262681) vecan0 19FFD7E1#410000007D0B1EFF
(1784259841.263287) vecan0 19FFD7E1#510000FFFF0B1EFF
(1784259841.263907) vecan0 19FFD5E1#41FF0000FFFFFFFF
(1784259841.264513) vecan0 19FFD5E1#51FF0000FFFFFFFF
(1784259841.362861) vecan0 19FFD7E1#410000007D0B1EFF
(1784259841.363471) vecan0 19FFD7E1#510000FFFF0B1EFF
(1784259841.364102) vecan0 19FFD5E1#41FF0000FFFFFFFF
(1784259841.364711) vecan0 19FFD5E1#51FF0000FFFFFFFF
(1784259841.427098) vecan0 01FFFDFA#F9140A01FFFFFFFF
(1784259841.446288) vecan0 00EEFF10#0000E0FF00803C80
(1784259841.454493) vecan0 01FFFFFA#1A07100517320308
(1784259841.458838) vecan0 19FFD7E1#410000007D0B1EFF
(1784259841.459442) vecan0 19FFD7E1#510000FFFF0B1EFF
(1784259841.460118) vecan0 19FFD5E1#41FF0000FFFFFFFF
(1784259841.460764) vecan0 19FFD5E1#51FF0000FFFFFFFF
(1784259841.461384) vecan0 19FFD4E1#0105FFFFFFFFFFFF
(1784259841.461992) vecan0 19FEA3E1#0101640A01007DFF
(1784259841.559842) vecan0 19FFD7E1#410000007DF41DFF
(1784259841.560464) vecan0 19FFD7E1#510000FFFFF41DFF
(1784259841.561101) vecan0 19FFD5E1#41FF0000FFFFFFFF
(1784259841.561722) vecan0 19FFD5E1#51FF0000FFFFFFFF
(1784259841.658842) vecan0 19FFD7E1#410000007DF41DFF
(1784259841.659455) vecan0 19FFD7E1#510000FFFFF41DFF
(1784259841.660134) vecan0 19FFD5E1#41FF0000FFFFFFFF
(1784259841.660754) vecan0 19FFD5E1#51FF0000FFFFFFFF
(1784259841.759969) vecan0 19FFFDA5#0177FFFFFFFFFFFF
(1784259841.760587) vecan0 19FFFCA5#0177FFFFFFFFFFFF
(1784259841.761215) vecan0 19FFD7E1#410000007DF41DFF
(1784259841.761865) vecan0 19FFD7E1#510000FFFFF41DFF
(1784259841.762496) vecan0 19FFD5E1#41FF0000FFFFFFFF
(1784259841.763104) vecan0 19FFD5E1#51FF0000FFFFFFFF
(1784259841.862901) vecan0 19FFD7E1#410000007DF41DFF
(1784259841.863512) vecan0 19FFD7E1#510000FFFFF41DFF
(1784259841.864172) vecan0 19FFD5E1#41FF0000FFFFFFFF
(1784259841.864793) vecan0 19FFD5E1#51FF0000FFFFFFFF
(1784259841.946015) vecan0 01FFFDFA#F9140A01FFFFFFFF
(1784259841.962439) vecan0 19FFD7E1#410000007DF41DFF
(1784259841.963044) vecan0 19FFD7E1#510000FFFFF41DFF
(1784259841.963698) vecan0 19FFD5E1#41FF0000FFFFFFFF
(1784259841.964312) vecan0 19FFD5E1#51FF0000FFFFFFFF
(1784259841.964943) vecan0 19FFD4E1#0105FFFFFFFFFFFF
(1784259841.965555) vecan0 19FEA3E1#0101640A01007DFF
(1784259842.063324) vecan0 19FFD7E1#410000007D0B1EFF
(1784259842.063927) vecan0 19FFD7E1#510000FFFF0B1EFF
(1784259842.064561) vecan0 19FFD5E1#41FF0000FFFFFFFF
(1784259842.065179) vecan0 19FFD5E1#51FF0000FFFFFFFF
(1784259842.164595) vecan0 19FFD7E1#410000007D0B1EFF
(1784259842.165207) vecan0 19FFD7E1#510000FFFF0B1EFF
(1784259842.165847) vecan0 19FFD5E1#41FF0000FFFFFFFF
(1784259842.166471) vecan0 19FFD5E1#51FF0000FFFFFFFF
(1784259842.259424) vecan0 19FFFDA5#0177FFFFFFFFFFFF
(1784259842.260056) vecan0 19FFFCA5#0177FFFFFFFFFFFF
(1784259842.260662) vecan0 19FFD7E1#410000007D0B1EFF
(1784259842.261267) vecan0 19FFD7E1#510000FFFF0B1EFF
(1784259842.261905) vecan0 19FFD5E1#41FF0000FFFFFFFF
(1784259842.262511) vecan0 19FFD5E1#51FF0000FFFFFFFF
(1784259842.360444) vecan0 19FFD7E1#410000007D0B1EFF
(1784259842.361055) vecan0 19FFD7E1#510000FFFF0B1EFF
(1784259842.361694) vecan0 19FFD5E1#41FF0000FFFFFFFF
(1784259842.362312) vecan0 19FFD5E1#51FF0000FFFFFFFF
(1784259842.420610) vecan0 01FFFDFA#F9140B01FFFFFFFF
(1784259842.428861) vecan0 01FFB7FA#0349643D005400FF
(1784259842.439153) vecan0 00EEFF10#0000E0FF00803C80
(1784259842.447225) vecan0 01FFFFFA#1A07100517320408
(1784259842.459820) vecan0 19FFD7E1#410000007DF41DFF
(1784259842.460431) vecan0 19FFD7E1#510000FFFFF41DFF
(1784259842.461061) vecan0 19FFD5E1#41FF0000FFFFFFFF
(1784259842.461670) vecan0 19FFD5E1#51FF0000FFFFFFFF
(1784259842.462296) vecan0 19FFD4E1#0105FFFFFFFFFFFF
(1784259842.463117) vecan0 19FEA3E1#0101640A01007DFF
(1784259842.561897) vecan0 19FFD7E1#410000007DF41DFF
(1784259842.562517) vecan0 19FFD7E1#510000FFFFF41DFF
(1784259842.563155) vecan0 19FFD5E1#41FF0000FFFFFFFF
(1784259842.563775) vecan0 19FFD5E1#51FF0000FFFFFFFF
